# MHz S MA R 50
!   freq        S11       
 200.000  0.98551  -52.85
 203.804  0.98483  -53.80
 207.608  0.98572  -54.85
 211.411  0.98354  -55.78
 215.215  0.98463  -56.67
 219.019  0.98398  -57.60
 222.823  0.98471  -58.52
 226.627  0.98204  -59.46
 230.430  0.98348  -60.39
 234.234  0.98265  -61.33
 238.038  0.98306  -62.18
 241.842  0.98075  -63.01
 245.646  0.98071  -64.07
 249.449  0.98134  -64.92
 253.253  0.98045  -65.80
 257.057  0.98038  -66.72
 260.861  0.97984  -67.77
 264.665  0.97950  -68.50
 268.468  0.97959  -69.45
 272.272  0.97945  -70.38
 276.076  0.97904  -71.35
 279.880  0.97953  -72.19
 283.684  0.97859  -73.09
 287.487  0.98090  -73.96
 291.291  0.97863  -74.81
 295.095  0.97754  -75.73
 298.899  0.97893  -76.60
 302.703  0.97888  -77.61
 306.507  0.97997  -78.45
 310.310  0.97778  -79.28
 314.114  0.97819  -80.24
 317.918  0.97760  -81.03
 321.722  0.97646  -81.90
 325.526  0.97749  -82.78
 329.329  0.97722  -83.60
 333.133  0.97643  -84.50
 336.937  0.97685  -85.33
 340.741  0.97677  -86.25
 344.545  0.97724  -87.11
 348.348  0.97679  -87.92
 352.152  0.97550  -88.84
 355.956  0.97652  -89.69
 359.760  0.97454  -90.51
 363.564  0.97603  -91.36
 367.367  0.97562  -92.22
 371.171  0.97599  -93.11
 374.975  0.97657  -93.93
 378.779  0.97644  -94.77
 382.583  0.97512  -95.58
 386.386  0.97617  -96.39
 390.190  0.97495  -97.23
 393.994  0.97466  -98.10
 397.798  0.97424  -98.88
 401.602  0.97604  -99.58
 405.405  0.97332 -100.50
 409.209  0.97590 -101.38
 413.013  0.97543 -102.22
 416.817  0.97520 -102.97
 420.621  0.97558 -103.88
 424.424  0.97483 -104.80
 428.228  0.97553 -105.57
 432.032  0.97613 -106.38
 435.836  0.97701 -107.19
 439.640  0.97615 -107.97
 443.443  0.97483 -108.81
 447.247  0.97597 -109.65
 451.051  0.97572 -110.45
 454.855  0.97431 -111.11
 458.659  0.97612 -112.02
 462.462  0.97302 -112.60
 466.266  0.97499 -113.38
 470.070  0.97314 -114.26
 473.874  0.97134 -114.95
 477.678  0.97240 -115.79
 481.481  0.97176 -116.56
 485.285  0.97280 -117.37
 489.089  0.97455 -118.19
 492.893  0.97287 -118.90
 496.697  0.97350 -119.77
 500.501  0.97560 -120.58
 504.304  0.97579 -121.43
 508.108  0.97542 -122.14
 511.912  0.97479 -122.83
 515.716  0.97521 -123.64
 519.520  0.97630 -124.47
 523.323  0.97424 -125.13
 527.127  0.97594 -125.96
 530.931  0.97585 -126.73
 534.735  0.97502 -127.50
 538.539  0.97493 -128.26
 542.342  0.97456 -129.03
 546.146  0.97477 -129.81
 549.950  0.97423 -130.50
 553.754  0.97380 -131.28
 557.558  0.97361 -131.97
 561.361  0.97450 -132.76
 565.165  0.97232 -133.50
 568.969  0.97305 -134.31
 572.773  0.97228 -134.98
 576.577  0.97188 -135.78
 580.380  0.97221 -136.57
 584.184  0.97128 -137.38
 587.988  0.97094 -138.17
 591.792  0.97137 -138.86
 595.596  0.97204 -139.63
 599.399  0.97128 -140.31
 603.203  0.97039 -141.13
 607.007  0.96998 -141.97
 610.811  0.97042 -142.74
 614.615  0.97041 -143.48
 618.418  0.96988 -144.22
 622.222  0.96983 -145.04
 626.026  0.97033 -145.77
 629.830  0.96976 -146.43
 633.634  0.96983 -147.33
 637.437  0.96901 -148.06
 641.241  0.96977 -148.82
 645.045  0.96905 -149.51
 648.849  0.96839 -150.33
 652.653  0.96843 -151.15
 656.456  0.96889 -151.86
 660.260  0.96875 -152.68
 664.064  0.96695 -153.57
 667.868  0.96663 -154.14
 671.672  0.96678 -155.07
 675.475  0.96694 -155.80
 679.279  0.96570 -156.57
 683.083  0.96693 -157.42
 686.887  0.96443 -158.12
 690.691  0.96619 -159.02
 694.494  0.96597 -159.84
 698.298  0.96487 -160.67
 702.102  0.96446 -161.33
 705.906  0.96361 -162.25
 709.710  0.96579 -162.99
 713.514  0.96318 -163.76
 717.317  0.96288 -164.55
 721.121  0.96260 -165.49
 724.925  0.96316 -166.33
 728.729  0.96183 -167.14
 732.533  0.96239 -167.98
 736.336  0.96368 -168.78
 740.140  0.96164 -169.65
 743.944  0.96156 -170.52
 747.748  0.95986 -171.30
 751.552  0.96172 -172.27
 755.355  0.96036 -173.06
 759.159  0.96016 -173.82
 762.963  0.95773 -174.67
 766.767  0.95810 -175.59
 770.571  0.95821 -176.39
 774.374  0.95816 -177.23
 778.178  0.95703 -178.14
 781.982  0.95747 -179.04
 785.786  0.95570 -179.93
 789.590  0.95530  179.27
 793.393  0.95588  178.33
 797.197  0.95391  177.48
 801.001  0.95472  176.57
 804.805  0.95433  175.70
 808.609  0.95501  174.70
 812.412  0.95389  173.75
 816.216  0.95369  172.85
 820.020  0.95275  171.94
 823.824  0.95366  171.04
 827.628  0.95352  170.03
 831.431  0.95061  169.13
 835.235  0.95182  168.26
 839.039  0.95024  167.40
 842.843  0.94873  166.32
 846.647  0.94908  165.27
 850.450  0.94875  164.34
 854.254  0.94844  163.33
 858.058  0.94636  162.36
 861.862  0.94714  161.41
 865.666  0.94802  160.42
 869.469  0.94370  159.56
 873.273  0.94629  158.35
 877.077  0.94499  157.31
 880.881  0.94423  156.32
 884.685  0.94188  155.38
 888.488  0.94268  154.23
 892.292  0.94267  153.15
 896.096  0.94091  152.11
 899.900  0.93935  151.06
 903.704  0.93901  150.06
 907.508  0.94016  148.75
 911.311  0.93683  147.70
 915.115  0.93665  146.50
 918.919  0.93297  145.42
 922.723  0.93205  144.09
 926.527  0.92971  142.99
 930.330  0.92838  141.77
 934.134  0.92581  140.43
 937.938  0.92340  139.10
 941.742  0.92158  137.78
 945.546  0.91578  136.41
 949.349  0.91388  135.04
 953.153  0.90923  133.57
 956.957  0.90402  131.96
 960.761  0.89624  130.48
 964.565  0.88820  128.80
 968.368  0.87696  126.99
 972.172  0.86206  125.27
 975.976  0.84466  123.32
 979.780  0.82023  121.44
 983.584  0.79035  119.60
 987.387  0.74846  118.22
 991.191  0.69904  117.98
 994.995  0.64665  119.60
 998.799  0.60908  123.82
1002.603  0.60753  129.66
1006.406  0.64150  134.15
1010.210  0.69199  135.89
1014.014  0.74119  135.62
1017.818  0.78197  134.35
1021.622  0.81436  132.54
1025.425  0.83703  130.50
1029.229  0.85405  128.55
1033.033  0.86798  126.67
1036.837  0.87707  124.94
1040.641  0.88400  123.17
1044.444  0.88985  121.47
1048.248  0.89559  119.70
1052.052  0.89881  118.20
1055.856  0.90167  116.76
1059.660  0.90305  115.17
1063.463  0.90509  113.50
1067.267  0.90566  112.29
1071.071  0.90537  110.89
1074.875  0.90859  109.33
1078.679  0.90917  107.97
1082.482  0.90909  106.56
1086.286  0.91068  105.16
1090.090  0.91068  103.86
1093.894  0.90962  102.39
1097.698  0.91215  101.17
1101.502  0.90921   99.78
1105.305  0.90917   98.56
1109.109  0.90858   97.11
1112.913  0.90688   95.86
1116.717  0.90786   94.38
1120.521  0.90560   92.91
1124.324  0.90660   91.63
1128.128  0.90429   90.38
1131.932  0.90486   88.92
1135.736  0.90576   87.72
1139.540  0.90546   86.18
1143.343  0.90367   84.89
1147.147  0.90560   83.74
1150.951  0.90836   82.42
1154.755  0.90373   80.93
1158.559  0.90255   79.39
1162.362  0.90466   78.43
1166.166  0.90427   76.87
1169.970  0.90346   75.65
1173.774  0.90491   74.14
1177.578  0.90111   73.11
1181.381  0.90159   71.55
1185.185  0.90118   70.16
1188.989  0.90178   68.93
1192.793  0.90483   67.38
1196.597  0.90315   66.30
1200.400  0.90358   64.87
1204.204  0.90092   63.59
1208.008  0.90294   62.13
1211.812  0.90235   60.95
1215.616  0.89955   59.66
1219.419  0.89888   58.19
1223.223  0.90357   56.82
1227.027  0.90016   55.60
1230.831  0.89902   54.27
1234.635  0.89984   52.77
1238.438  0.89984   51.65
1242.242  0.90206   50.20
1246.046  0.89654   49.04
1249.850  0.89819   47.68
1253.654  0.90006   46.24
1257.457  0.89953   44.99
1261.261  0.89997   43.76
1265.065  0.89814   42.58
1268.869  0.90020   41.18
1272.673  0.89990   39.99
1276.476  0.89812   38.75
1280.280  0.90033   37.39
1284.084  0.89942   36.11
1287.888  0.90123   34.91
1291.692  0.90276   33.61
1295.495  0.90023   32.45
1299.299  0.90383   31.17
1303.103  0.90061   29.98
1306.907  0.90120   28.73
1310.711  0.90155   27.53
1314.515  0.90244   26.29
1318.318  0.90209   25.01
1322.122  0.90235   23.86
1325.926  0.90187   22.62
1329.730  0.90149   21.42
1333.534  0.90190   20.26
1337.337  0.90147   19.09
1341.141  0.89997   17.92
1344.945  0.90060   16.69
1348.749  0.90161   15.41
1352.553  0.90040   14.32
1356.356  0.90019   13.25
1360.160  0.90014   12.10
1363.964  0.90096   10.93
1367.768  0.90038    9.96
1371.572  0.90133    8.67
1375.375  0.90157    7.71
1379.179  0.90124    6.58
1382.983  0.90180    5.46
1386.787  0.90106    4.42
1390.591  0.90178    3.32
1394.394  0.90291    2.20
1398.198  0.90325    1.25
1402.002  0.90308    0.14
1405.806  0.90285   -0.92
1409.610  0.90308   -1.96
1413.413  0.90349   -2.92
1417.217  0.90473   -3.99
1421.021  0.90437   -5.09
1424.825  0.90553   -6.07
1428.629  0.90511   -7.05
1432.432  0.90523   -8.03
1436.236  0.90661   -9.16
1440.040  0.90716   -9.93
1443.844  0.90682  -10.92
1447.648  0.90632  -11.87
1451.451  0.90708  -12.93
1455.255  0.90797  -13.79
1459.059  0.90837  -14.72
1462.863  0.90797  -15.61
1466.667  0.90751  -16.52
1470.470  0.90851  -17.55
1474.274  0.90870  -18.31
1478.078  0.90971  -19.21
1481.882  0.90945  -20.07
1485.686  0.90866  -20.86
1489.489  0.91036  -21.95
1493.293  0.91066  -22.68
1497.097  0.91210  -23.64
1500.901  0.91181  -24.46
1504.705  0.90942  -25.35
1508.509  0.91121  -26.26
1512.312  0.91104  -26.98
1516.116  0.91134  -27.84
1519.920  0.91289  -28.72
1523.724  0.91303  -29.45
1527.528  0.91293  -30.27
1531.331  0.91347  -30.99
1535.135  0.91351  -31.86
1538.939  0.91452  -32.60
1542.743  0.91246  -33.48
1546.547  0.91455  -34.20
1550.350  0.91508  -35.01
1554.154  0.91471  -35.90
1557.958  0.91564  -36.45
1561.762  0.91543  -37.33
1565.566  0.91642  -38.17
1569.369  0.91549  -38.87
1573.173  0.91681  -39.57
1576.977  0.91711  -40.29
1580.781  0.91786  -41.18
1584.585  0.91826  -41.74
1588.388  0.91748  -42.58
1592.192  0.91709  -43.12
1595.996  0.91819  -44.04
1599.800  0.91790  -44.66
1603.604  0.91956  -45.46
1607.407  0.92128  -46.20
1611.211  0.91974  -47.06
1615.015  0.91840  -47.56
1618.819  0.91947  -48.35
1622.623  0.92019  -48.94
1626.426  0.92070  -49.66
1630.230  0.92087  -50.44
1634.034  0.92186  -51.11
1637.838  0.92324  -51.78
1641.642  0.92189  -52.68
1645.445  0.92337  -53.20
1649.249  0.92233  -53.91
1653.053  0.92072  -54.54
1656.857  0.92283  -55.33
1660.661  0.92126  -56.02
1664.464  0.92370  -56.66
1668.268  0.92305  -57.47
1672.072  0.92424  -57.95
1675.876  0.92430  -58.76
1679.680  0.92437  -59.33
1683.483  0.92429  -60.04
1687.287  0.92581  -60.76
1691.091  0.92392  -61.32
1694.895  0.92397  -62.07
1698.699  0.92350  -62.60
1702.503  0.92194  -63.31
1706.306  0.92381  -63.78
1710.110  0.92565  -64.49
1713.914  0.92344  -65.18
1717.718  0.92395  -65.76
1721.522  0.92364  -66.56
1725.325  0.92297  -66.87
1729.129  0.92228  -67.62
1732.933  0.92290  -68.10
1736.737  0.92364  -69.03
1740.541  0.92313  -69.37
1744.344  0.92310  -70.12
1748.148  0.92415  -70.65
1751.952  0.92536  -71.33
1755.756  0.92371  -71.94
1759.560  0.92685  -72.54
1763.363  0.92587  -73.08
1767.167  0.92814  -73.47
1770.971  0.92732  -74.12
1774.775  0.92867  -74.63
1778.579  0.93061  -75.12
1782.382  0.92960  -75.65
1786.186  0.92950  -76.13
1789.990  0.93196  -76.76
1793.794  0.93334  -77.35
1797.598  0.93142  -78.02
1801.401  0.93393  -78.51
1805.205  0.93309  -79.25
1809.009  0.93411  -79.54
1812.813  0.93153  -80.26
1816.617  0.93071  -80.88
1820.420  0.93345  -81.21
1824.224  0.93345  -81.79
1828.028  0.93297  -82.43
1831.832  0.93304  -83.02
1835.636  0.93317  -83.50
1839.439  0.93350  -83.91
1843.243  0.93352  -84.94
1847.047  0.93361  -85.09
1850.851  0.93458  -85.68
1854.655  0.93420  -86.06
1858.458  0.93687  -86.56
1862.262  0.93426  -87.14
1866.066  0.93536  -87.65
1869.870  0.93850  -88.25
1873.674  0.93684  -88.85
1877.477  0.93554  -89.24
1881.281  0.93670  -89.76
1885.085  0.93868  -90.37
1888.889  0.93746  -90.72
1892.693  0.93825  -91.30
1896.496  0.93737  -91.80
1900.300  0.93842  -92.10
1904.104  0.93764  -92.83
1907.908  0.93709  -92.99
1911.712  0.93909  -93.58
1915.516  0.93812  -93.87
1919.319  0.93887  -94.58
1923.123  0.93889  -95.04
1926.927  0.93574  -95.34
1930.731  0.93636  -95.85
1934.535  0.93751  -96.36
1938.338  0.93902  -96.71
1942.142  0.93642  -97.25
1945.946  0.93791  -97.69
1949.750  0.93565  -98.11
1953.554  0.93782  -98.67
1957.357  0.93964  -99.06
1961.161  0.93672  -99.57
1964.965  0.93710 -100.06
1968.769  0.93743 -100.46
1972.573  0.93793 -100.90
1976.376  0.93513 -101.31
1980.180  0.93304 -101.72
1983.984  0.93334 -102.16
1987.788  0.93334 -102.76
1991.592  0.93539 -103.13
1995.395  0.93389 -103.39
1999.199  0.93193 -104.11
2003.003  0.93318 -104.41
2006.807  0.93369 -104.85
2010.611  0.93085 -105.33
2014.414  0.93300 -105.88
2018.218  0.92934 -106.18
2022.022  0.92962 -106.73
2025.826  0.92958 -107.08
2029.630  0.92852 -107.46
2033.433  0.92825 -107.96
2037.237  0.92544 -108.30
2041.041  0.92497 -108.76
2044.845  0.92497 -109.21
2048.649  0.92728 -109.65
2052.452  0.92642 -110.21
2056.256  0.92738 -110.53
2060.060  0.92552 -110.94
2063.864  0.92673 -111.64
2067.668  0.92628 -112.19
2071.471  0.92447 -112.44
2075.275  0.92725 -113.27
2079.079  0.92509 -113.64
2082.883  0.92648 -114.20
2086.687  0.92408 -114.69
2090.490  0.92459 -115.34
2094.294  0.92550 -116.07
2098.098  0.92421 -116.46
2101.902  0.92154 -117.28
2105.706  0.91858 -117.60
2109.510  0.91701 -118.20
2113.313  0.91294 -118.99
2117.117  0.91097 -119.43
2120.921  0.91005 -120.28
2124.725  0.90412 -120.78
2128.529  0.90108 -121.54
2132.332  0.89919 -122.40
2136.136  0.89401 -123.08
2139.940  0.88841 -123.52
2143.744  0.88543 -124.39
2147.548  0.88007 -124.99
2151.351  0.87418 -125.79
2155.155  0.86791 -126.61
2158.959  0.85814 -127.44
2162.763  0.85478 -128.29
2166.567  0.84573 -129.36
2170.370  0.83401 -130.21
2174.174  0.82469 -131.05
2177.978  0.81523 -132.49
2181.782  0.80162 -133.21
2185.586  0.78621 -134.19
2189.389  0.76881 -135.45
2193.193  0.74507 -136.38
2196.997  0.72590 -137.07
2200.801  0.69940 -138.28
2204.605  0.67188 -139.26
2208.408  0.64104 -139.43
2212.212  0.60974 -139.43
2216.016  0.57432 -139.21
2219.820  0.53639 -137.63
2223.624  0.50317 -135.60
2227.427  0.47213 -132.63
2231.231  0.45145 -128.12
2235.035  0.43959 -122.46
2238.839  0.44006 -116.90
2242.643  0.45448 -111.66
2246.446  0.47903 -107.41
2250.250  0.50849 -104.46
2254.054  0.53732 -102.26
2257.858  0.57683 -101.67
2261.662  0.61253 -101.06
2265.465  0.64213 -101.42
2269.269  0.67199 -102.29
2273.073  0.70257 -103.02
2276.877  0.72281 -103.62
2280.681  0.74353 -104.86
2284.484  0.76279 -105.91
2288.288  0.77780 -106.70
2292.092  0.79636 -108.19
2295.896  0.81019 -108.86
2299.700  0.81868 -110.02
2303.504  0.83063 -111.02
2307.307  0.83826 -112.38
2311.111  0.84688 -113.20
2314.915  0.85275 -114.06
2318.719  0.86006 -115.22
2322.523  0.86588 -115.53
2326.326  0.87195 -116.88
2330.130  0.87780 -117.40
2333.934  0.87848 -118.27
2337.738  0.88060 -118.85
2341.542  0.88730 -119.78
2345.345  0.88929 -120.39
2349.149  0.89358 -121.10
2352.953  0.89387 -121.83
2356.757  0.89753 -122.52
2360.561  0.89997 -123.21
2364.364  0.89779 -123.91
2368.168  0.90305 -124.94
2371.972  0.90447 -125.28
2375.776  0.90426 -125.91
2379.580  0.90723 -126.50
2383.383  0.90998 -127.19
2387.187  0.91161 -128.12
2390.991  0.91059 -128.26
2394.795  0.91148 -129.19
2398.599  0.91309 -129.56
2402.402  0.91300 -130.45
2406.206  0.91513 -131.07
2410.010  0.91534 -131.23
2413.814  0.91675 -132.14
2417.618  0.91811 -132.72
2421.421  0.92022 -133.22
2425.225  0.91844 -133.59
2429.029  0.92057 -134.39
2432.833  0.92109 -134.83
2436.637  0.92223 -135.43
2440.440  0.92294 -135.90
2444.244  0.92178 -136.37
2448.048  0.92462 -136.97
2451.852  0.92299 -137.35
2455.656  0.92399 -137.44
2459.459  0.92721 -138.31
2463.263  0.92672 -139.01
2467.067  0.92688 -139.42
2470.871  0.92602 -139.90
2474.675  0.92667 -140.39
2478.478  0.92712 -140.78
2482.282  0.92653 -141.34
2486.086  0.92806 -141.80
2489.890  0.92589 -142.40
2493.694  0.92790 -142.92
2497.497  0.92785 -143.41
2501.301  0.92639 -144.01
2505.105  0.92570 -144.27
2508.909  0.92686 -145.09
2512.713  0.92481 -145.42
2516.517  0.92668 -145.87
2520.320  0.92614 -146.37
2524.124  0.92252 -146.93
2527.928  0.92367 -147.26
2531.732  0.92264 -147.80
2535.536  0.92118 -148.19
2539.339  0.91984 -148.65
2543.143  0.92042 -149.32
2546.947  0.91930 -149.51
2550.751  0.91926 -150.00
2554.555  0.91932 -150.47
2558.358  0.91957 -150.53
2562.162  0.92040 -150.79
2565.966  0.92276 -151.38
2569.770  0.92684 -151.79
2573.574  0.92782 -152.32
2577.377  0.92985 -152.80
2581.181  0.93193 -153.29
2584.985  0.93418 -153.97
2588.789  0.93356 -154.53
2592.593  0.93461 -155.29
2596.396  0.93392 -155.82
2600.200  0.93231 -156.17
2604.004  0.92966 -156.92
2607.808  0.92994 -157.32
2611.612  0.92510 -157.62
2615.415  0.92669 -158.44
2619.219  0.92381 -158.56
2623.023  0.92288 -159.04
2626.827  0.92164 -159.39
2630.631  0.91960 -160.05
2634.434  0.91975 -160.62
2638.238  0.91820 -161.31
2642.042  0.91762 -161.48
2645.846  0.91683 -161.77
2649.650  0.91775 -162.45
2653.453  0.91432 -163.14
2657.257  0.91456 -163.48
2661.061  0.91515 -164.06
2664.865  0.91394 -164.85
2668.669  0.91466 -165.29
2672.472  0.91176 -165.77
2676.276  0.91290 -165.92
2680.080  0.91363 -166.77
2683.884  0.90809 -167.37
2687.688  0.90955 -167.87
2691.491  0.90900 -168.49
2695.295  0.90735 -168.76
2699.099  0.90826 -169.42
2702.903  0.90731 -170.11
2706.707  0.90682 -170.51
2710.511  0.90726 -171.20
2714.314  0.90368 -171.82
2718.118  0.90687 -172.09
2721.922  0.89902 -173.01
2725.726  0.90220 -173.39
2729.530  0.90016 -174.07
2733.333  0.90022 -174.38
2737.137  0.89703 -175.43
2740.941  0.89681 -176.15
2744.745  0.89415 -176.88
2748.549  0.89499 -177.59
2752.352  0.89256 -177.76
2756.156  0.89169 -178.57
2759.960  0.88934 -179.46
2763.764  0.89093  179.95
2767.568  0.88480  178.70
2771.371  0.88429  178.53
2775.175  0.88491  177.61
2778.979  0.88300  176.70
2782.783  0.88071  176.07
2786.587  0.87937  175.79
2790.390  0.87881  175.00
2794.194  0.87547  173.71
2797.998  0.87347  173.23
2801.802  0.87268  172.25
2805.606  0.87117  171.51
2809.409  0.87010  170.77
2813.213  0.86862  169.89
2817.017  0.86662  169.03
2820.821  0.86550  168.25
2824.625  0.86240  167.35
2828.428  0.86097  166.34
2832.232  0.85977  165.52
2836.036  0.85765  164.45
2839.840  0.85591  163.80
2843.644  0.85610  162.84
2847.447  0.85257  161.79
2851.251  0.84917  160.73
2855.055  0.84673  159.73
2858.859  0.84555  159.15
2862.663  0.84210  157.62
2866.466  0.84047  156.82
2870.270  0.83812  156.01
2874.074  0.83495  154.58
2877.878  0.83369  153.43
2881.682  0.82981  152.48
2885.485  0.82770  151.37
2889.289  0.82558  150.41
2893.093  0.82325  149.07
2896.897  0.82051  148.10
2900.701  0.81781  146.84
2904.505  0.81627  145.71
2908.308  0.81307  144.32
2912.112  0.81270  143.42
2915.916  0.80963  141.95
2919.720  0.80887  140.77
2923.524  0.80519  139.57
2927.327  0.80342  138.38
2931.131  0.80106  136.94
2934.935  0.79592  135.83
2938.739  0.79478  134.25
2942.543  0.79273  132.72
2946.346  0.79155  131.57
2950.150  0.78881  130.00
2953.954  0.78458  128.74
2957.758  0.78446  127.19
2961.562  0.78265  125.63
2965.365  0.77881  124.37
2969.169  0.77620  122.76
2972.973  0.77662  120.91
2976.777  0.77156  119.26
2980.581  0.76887  117.88
2984.384  0.76457  116.39
2988.188  0.76140  114.91
2991.992  0.75805  113.25
2995.796  0.75362  111.47
2999.600  0.74943  109.99
3003.403  0.74613  108.50
3007.207  0.74300  106.83
3011.011  0.73899  105.18
3014.815  0.73735  103.56
3018.619  0.73702  101.69
3022.422  0.73099  100.27
3026.226  0.72867   98.57
3030.030  0.72496   97.05
3033.834  0.72360   95.50
3037.638  0.71936   93.73
3041.441  0.71908   92.19
3045.245  0.71928   90.48
3049.049  0.71369   88.63
3052.853  0.71087   86.98
3056.657  0.70915   85.47
3060.460  0.71033   83.52
3064.264  0.70528   82.09
3068.068  0.70317   80.22
3071.872  0.70122   78.69
3075.676  0.70342   76.73
3079.479  0.70388   75.02
3083.283  0.70391   73.24
3087.087  0.70392   71.23
3090.891  0.70349   69.29
3094.695  0.70308   67.54
3098.498  0.70570   65.38
3102.302  0.70532   63.63
3106.106  0.70463   61.67
3109.910  0.70427   59.90
3113.714  0.70404   57.73
