# MHz S MA R 50
!   freq        S11       
 200.000  0.98533  -52.64
 203.804  0.98469  -53.56
 207.608  0.98485  -54.53
 211.411  0.98337  -55.50
 215.215  0.98467  -56.32
 219.019  0.98400  -57.23
 222.823  0.98518  -58.13
 226.627  0.98232  -59.10
 230.430  0.98280  -60.01
 234.234  0.98153  -60.92
 238.038  0.98285  -61.75
 241.842  0.98045  -62.62
 245.646  0.98097  -63.55
 249.449  0.98058  -64.37
 253.253  0.98051  -65.21
 257.057  0.98103  -66.12
 260.861  0.97928  -67.10
 264.665  0.97943  -67.85
 268.468  0.97996  -68.78
 272.272  0.97904  -69.69
 276.076  0.97906  -70.57
 279.880  0.97931  -71.33
 283.684  0.97951  -72.17
 287.487  0.97957  -73.12
 291.291  0.97846  -73.84
 295.095  0.97745  -74.75
 298.899  0.97884  -75.63
 302.703  0.97807  -76.51
 306.507  0.97890  -77.25
 310.310  0.97774  -78.09
 314.114  0.97734  -79.01
 317.918  0.97828  -79.74
 321.722  0.97557  -80.56
 325.526  0.97675  -81.43
 329.329  0.97654  -82.15
 333.133  0.97629  -83.05
 336.937  0.97656  -83.79
 340.741  0.97705  -84.64
 344.545  0.97691  -85.48
 348.348  0.97695  -86.19
 352.152  0.97566  -87.07
 355.956  0.97654  -87.87
 359.760  0.97448  -88.66
 363.564  0.97555  -89.44
 367.367  0.97538  -90.19
 371.171  0.97676  -91.02
 374.975  0.97607  -91.82
 378.779  0.97614  -92.56
 382.583  0.97492  -93.34
 386.386  0.97553  -94.08
 390.190  0.97519  -94.83
 393.994  0.97547  -95.63
 397.798  0.97525  -96.34
 401.602  0.97642  -97.13
 405.405  0.97385  -97.89
 409.209  0.97535  -98.74
 413.013  0.97499  -99.43
 416.817  0.97522 -100.12
 420.621  0.97690 -100.96
 424.424  0.97415 -101.79
 428.228  0.97494 -102.48
 432.032  0.97594 -103.20
 435.836  0.97673 -103.89
 439.640  0.97583 -104.63
 443.443  0.97525 -105.36
 447.247  0.97620 -106.10
 451.051  0.97518 -106.79
 454.855  0.97453 -107.48
 458.659  0.97555 -108.23
 462.462  0.97185 -108.76
 466.266  0.97455 -109.47
 470.070  0.97254 -110.22
 473.874  0.97123 -110.84
 477.678  0.97231 -111.54
 481.481  0.97266 -112.28
 485.285  0.97332 -112.91
 489.089  0.97417 -113.75
 492.893  0.97226 -114.33
 496.697  0.97371 -115.07
 500.501  0.97598 -115.73
 504.304  0.97842 -116.42
 508.108  0.97626 -117.12
 511.912  0.97485 -117.79
 515.716  0.97617 -118.49
 519.520  0.97602 -119.10
 523.323  0.97439 -119.72
 527.127  0.97593 -120.44
 530.931  0.97565 -121.11
 534.735  0.97550 -121.81
 538.539  0.97414 -122.37
 542.342  0.97454 -123.05
 546.146  0.97567 -123.74
 549.950  0.97545 -124.33
 553.754  0.97392 -124.99
 557.558  0.97461 -125.59
 561.361  0.97578 -126.26
 565.165  0.97283 -126.88
 568.969  0.97316 -127.55
 572.773  0.97234 -128.10
 576.577  0.97224 -128.76
 580.380  0.97344 -129.38
 584.184  0.97124 -130.12
 587.988  0.97202 -130.74
 591.792  0.97249 -131.30
 595.596  0.97252 -131.99
 599.399  0.97139 -132.53
 603.203  0.97091 -133.24
 607.007  0.97020 -133.88
 610.811  0.97188 -134.51
 614.615  0.97122 -135.13
 618.418  0.97156 -135.77
 622.222  0.97089 -136.37
 626.026  0.97040 -136.97
 629.830  0.97195 -137.56
 633.634  0.97092 -138.26
 637.437  0.96975 -138.76
 641.241  0.97094 -139.46
 645.045  0.97004 -140.09
 648.849  0.96979 -140.67
 652.653  0.96851 -141.33
 656.456  0.96967 -141.87
 660.260  0.97080 -142.56
 664.064  0.96847 -143.24
 667.868  0.96801 -143.82
 671.672  0.96726 -144.44
 675.475  0.96853 -145.01
 679.279  0.96705 -145.64
 683.083  0.96654 -146.25
 686.887  0.96731 -146.83
 690.691  0.96650 -147.47
 694.494  0.96651 -148.21
 698.298  0.96632 -148.78
 702.102  0.96520 -149.38
 705.906  0.96305 -150.24
 709.710  0.96648 -150.74
 713.514  0.96400 -151.26
 717.317  0.96521 -151.86
 721.121  0.96539 -152.64
 724.925  0.96577 -153.18
 728.729  0.96386 -153.71
 732.533  0.96480 -154.44
 736.336  0.96533 -155.00
 740.140  0.96417 -155.70
 743.944  0.96312 -156.34
 747.748  0.96300 -156.91
 751.552  0.96322 -157.64
 755.355  0.96334 -158.26
 759.159  0.96526 -159.07
 762.963  0.96115 -159.53
 766.767  0.96307 -160.34
 770.571  0.96207 -160.93
 774.374  0.96177 -161.44
 778.178  0.95962 -162.09
 781.982  0.96096 -162.82
 785.786  0.95913 -163.45
 789.590  0.95979 -164.10
 793.393  0.95921 -164.74
 797.197  0.95787 -165.39
 801.001  0.95811 -165.96
 804.805  0.95584 -166.63
 808.609  0.95842 -167.39
 812.412  0.95791 -168.04
 816.216  0.95801 -168.82
 820.020  0.95609 -169.39
 823.824  0.95699 -170.05
 827.628  0.95591 -170.68
 831.431  0.95672 -171.46
 835.235  0.95896 -172.21
 839.039  0.95743 -172.76
 842.843  0.95523 -173.64
 846.647  0.95530 -174.23
 850.450  0.95448 -174.92
 854.254  0.95362 -175.46
 858.058  0.95395 -176.18
 861.862  0.95492 -176.96
 865.666  0.95418 -177.61
 869.469  0.95249 -178.33
 873.273  0.95420 -178.95
 877.077  0.95251 -179.77
 880.881  0.95146  179.66
 884.685  0.95170  178.94
 888.488  0.95197  178.14
 892.292  0.95250  177.37
 896.096  0.95018  176.71
 899.900  0.94897  176.06
 903.704  0.95050  175.20
 907.508  0.95195  174.59
 911.311  0.94882  173.88
 915.115  0.94974  173.07
 918.919  0.94896  172.49
 922.723  0.94931  171.62
 926.527  0.94806  170.90
 930.330  0.94810  170.29
 934.134  0.94770  169.47
 937.938  0.94722  168.74
 941.742  0.94776  168.05
 945.546  0.94510  167.21
 949.349  0.94626  166.48
 953.153  0.94579  165.70
 956.957  0.94577  164.96
 960.761  0.94425  164.22
 964.565  0.94400  163.45
 968.368  0.94422  162.67
 972.172  0.94294  161.83
 975.976  0.94300  161.07
 979.780  0.94252  160.30
 983.584  0.94245  159.51
 987.387  0.94168  158.75
 991.191  0.94195  157.95
 994.995  0.94041  157.23
 998.799  0.93916  156.42
1002.603  0.93979  155.66
1006.406  0.93892  154.89
1010.210  0.93961  154.12
1014.014  0.93756  153.26
1017.818  0.93778  152.55
1021.622  0.93874  151.67
1025.425  0.93803  150.80
1029.229  0.93776  149.95
1033.033  0.93729  149.12
1036.837  0.93592  148.36
1040.641  0.93527  147.53
1044.444  0.93408  146.66
1048.248  0.93545  145.78
1052.052  0.93527  144.92
1055.856  0.93316  144.17
1059.660  0.93209  143.28
1063.463  0.93188  142.33
1067.267  0.93100  141.62
1071.071  0.92967  140.72
1074.875  0.93038  139.92
1078.679  0.92947  139.01
1082.482  0.92918  138.06
1086.286  0.92881  137.16
1090.090  0.92738  136.20
1093.894  0.92727  135.34
1097.698  0.92713  134.50
1101.502  0.92546  133.61
1105.305  0.92631  132.69
1109.109  0.92529  131.65
1112.913  0.92078  130.77
1116.717  0.92286  129.84
1120.521  0.92045  128.72
1124.324  0.91998  128.00
1128.128  0.91877  126.97
1131.932  0.91797  125.98
1135.736  0.91735  124.99
1139.540  0.91641  124.07
1143.343  0.91470  123.12
1147.147  0.91628  122.04
1150.951  0.91831  121.12
1154.755  0.91392  120.02
1158.559  0.91369  118.80
1162.362  0.91313  118.21
1166.166  0.91347  117.10
1169.970  0.91131  115.89
1173.774  0.91349  115.05
1177.578  0.90830  113.96
1181.381  0.90996  112.90
1185.185  0.90794  111.83
1188.989  0.90858  110.94
1192.793  0.90981  109.80
1196.597  0.90868  108.86
1200.400  0.90713  107.62
1204.204  0.90648  106.33
1208.008  0.90620  105.20
1211.812  0.90660  104.25
1215.616  0.90285  103.15
1219.419  0.90034  102.15
1223.223  0.90382  100.83
1227.027  0.90072   99.83
1230.831  0.89861   98.85
1234.635  0.89979   97.38
1238.438  0.90024   96.39
1242.242  0.89926   95.21
1246.046  0.89591   94.07
1249.850  0.89752   92.70
1253.654  0.89611   91.75
1257.457  0.89433   90.51
1261.261  0.89410   89.45
1265.065  0.89412   88.11
1268.869  0.89341   86.73
1272.673  0.89289   85.60
1276.476  0.88950   84.72
1280.280  0.89299   83.32
1284.084  0.89251   82.06
1287.888  0.89134   80.86
1291.692  0.89175   79.70
1295.495  0.89339   78.44
1299.299  0.89385   77.42
1303.103  0.88962   75.93
1306.907  0.89159   74.88
1310.711  0.89077   73.61
1314.515  0.89350   72.43
1318.318  0.88977   71.08
1322.122  0.89231   69.98
1325.926  0.89105   68.74
1329.730  0.88988   67.49
1333.534  0.88942   66.33
1337.337  0.88765   65.08
1341.141  0.88488   63.59
1344.945  0.88755   62.37
1348.749  0.88626   61.11
1352.553  0.88663   59.92
1356.356  0.88389   58.68
1360.160  0.88156   57.31
1363.964  0.88136   56.03
1367.768  0.87850   54.84
1371.572  0.87968   53.59
1375.375  0.87876   52.30
1379.179  0.87863   51.15
1382.983  0.87655   49.93
1386.787  0.87626   48.66
1390.591  0.87500   47.41
1394.394  0.87497   46.14
1398.198  0.87547   44.93
1402.002  0.87589   43.60
1405.806  0.87607   42.44
1409.610  0.87523   41.19
1413.413  0.87563   39.90
1417.217  0.87605   38.62
1421.021  0.87501   37.46
1424.825  0.87634   36.15
1428.629  0.87503   34.97
1432.432  0.87436   33.66
1436.236  0.87429   32.42
1440.040  0.87558   31.23
1443.844  0.87655   30.07
1447.648  0.87465   28.83
1451.451  0.87536   27.65
1455.255  0.87570   26.54
1459.059  0.87404   25.32
1462.863  0.87281   24.15
1466.667  0.87508   22.90
1470.470  0.87549   21.81
1474.274  0.87465   20.59
1478.078  0.87549   19.51
1481.882  0.87582   18.25
1485.686  0.87642   17.11
1489.489  0.87598   16.01
1493.293  0.87555   14.92
1497.097  0.87620   13.81
1500.901  0.87638   12.54
1504.705  0.87600   11.44
1508.509  0.87767   10.31
1512.312  0.87624    9.40
1516.116  0.87762    8.19
1519.920  0.87817    7.01
1523.724  0.87800    6.12
1527.528  0.87863    4.96
1531.331  0.87964    3.87
1535.135  0.87917    2.82
1538.939  0.88021    1.72
1542.743  0.87980    0.61
1546.547  0.88028   -0.39
1550.350  0.88013   -1.21
1554.154  0.88110   -2.52
1557.958  0.88095   -3.42
1561.762  0.88123   -4.43
1565.566  0.88354   -5.42
1569.369  0.88251   -6.56
1573.173  0.88189   -7.46
1576.977  0.88141   -8.48
1580.781  0.88377   -9.54
1584.585  0.88418  -10.52
1588.388  0.88433  -11.56
1592.192  0.88450  -12.36
1595.996  0.88509  -13.36
1599.800  0.88486  -14.31
1603.604  0.88582  -15.23
1607.407  0.88699  -16.16
1611.211  0.88714  -17.18
1615.015  0.88616  -18.05
1618.819  0.88685  -18.80
1622.623  0.88729  -19.81
1626.426  0.88681  -20.62
1630.230  0.88835  -21.78
1634.034  0.88852  -22.59
1637.838  0.88951  -23.44
1641.642  0.88943  -24.33
1645.445  0.89068  -25.27
1649.249  0.88987  -26.08
1653.053  0.88908  -27.07
1656.857  0.89056  -27.87
1660.661  0.88998  -28.77
1664.464  0.89295  -29.74
1668.268  0.89209  -30.58
1672.072  0.89184  -31.29
1675.876  0.89252  -32.23
1679.680  0.89285  -33.18
1683.483  0.89496  -33.92
1687.287  0.89424  -34.78
1691.091  0.89481  -35.64
1694.895  0.89520  -36.42
1698.699  0.89573  -37.35
1702.503  0.89620  -38.15
1706.306  0.89717  -38.89
1710.110  0.89717  -39.72
1713.914  0.89614  -40.61
1717.718  0.89824  -41.32
1721.522  0.89649  -42.24
1725.325  0.89607  -42.96
1729.129  0.89548  -43.74
1732.933  0.89563  -44.50
1736.737  0.89627  -45.40
1740.541  0.89787  -46.02
1744.344  0.89688  -46.66
1748.148  0.89728  -47.45
1751.952  0.89734  -48.29
1755.756  0.89636  -49.04
1759.560  0.89888  -49.83
1763.363  0.89792  -50.51
1767.167  0.90132  -51.13
1770.971  0.90006  -51.98
1774.775  0.90149  -52.57
1778.579  0.90301  -53.17
1782.382  0.90325  -53.96
1786.186  0.90309  -54.57
1789.990  0.90505  -55.30
1793.794  0.90679  -55.99
1797.598  0.90554  -56.60
1801.401  0.90756  -57.33
1805.205  0.90773  -58.18
1809.009  0.90885  -58.67
1812.813  0.90716  -59.52
1816.617  0.90768  -60.22
1820.420  0.90848  -60.60
1824.224  0.90926  -61.60
1828.028  0.90939  -62.11
1831.832  0.91124  -62.89
1835.636  0.91139  -63.45
1839.439  0.91064  -64.10
1843.243  0.91162  -64.84
1847.047  0.91141  -65.41
1850.851  0.91350  -65.85
1854.655  0.91417  -66.59
1858.458  0.91464  -67.09
1862.262  0.91296  -67.64
1866.066  0.91384  -68.44
1869.870  0.91589  -68.88
1873.674  0.91457  -69.54
1877.477  0.91562  -70.21
1881.281  0.91697  -70.81
1885.085  0.91880  -71.40
1888.889  0.91838  -71.85
1892.693  0.91932  -72.49
1896.496  0.91840  -73.16
1900.300  0.92008  -73.51
1904.104  0.91984  -74.16
1907.908  0.91965  -74.59
1911.712  0.92055  -75.15
1915.516  0.92017  -75.69
1919.319  0.92367  -76.26
1923.123  0.92269  -76.85
1926.927  0.92120  -77.35
1930.731  0.92153  -77.97
1934.535  0.92152  -78.37
1938.338  0.92380  -78.84
1942.142  0.92233  -79.39
1945.946  0.92365  -79.84
1949.750  0.92263  -80.34
1953.554  0.92360  -80.73
1957.357  0.92825  -81.17
1961.161  0.92545  -81.93
1964.965  0.92588  -82.23
1968.769  0.92589  -82.65
1972.573  0.92692  -83.01
1976.376  0.92467  -83.87
1980.180  0.92418  -84.07
1983.984  0.92318  -84.61
1987.788  0.92530  -85.02
1991.592  0.92620  -85.52
1995.395  0.92499  -85.58
1999.199  0.92648  -86.35
2003.003  0.92512  -86.79
2006.807  0.92777  -87.18
2010.611  0.92511  -87.61
2014.414  0.92829  -88.14
2018.218  0.92473  -88.34
2022.022  0.92516  -88.98
2025.826  0.92641  -89.22
2029.630  0.92543  -89.71
2033.433  0.92363  -90.05
2037.237  0.92385  -90.29
2041.041  0.92230  -90.76
2044.845  0.92411  -91.23
2048.649  0.92680  -91.64
2052.452  0.92713  -91.83
2056.256  0.92710  -92.27
2060.060  0.92836  -92.65
2063.864  0.92935  -93.14
2067.668  0.92948  -93.34
2071.471  0.92843  -93.69
2075.275  0.93231  -94.00
2079.079  0.92883  -94.52
2082.883  0.93240  -94.81
2086.687  0.93178  -95.38
2090.490  0.93296  -95.67
2094.294  0.93556  -96.19
2098.098  0.93668  -96.52
2101.902  0.93737  -96.89
2105.706  0.93540  -97.23
2109.510  0.93685  -97.41
2113.313  0.93610  -97.89
2117.117  0.93712  -98.28
2120.921  0.93912  -98.89
2124.725  0.93893  -99.07
2128.529  0.93799  -99.57
2132.332  0.93903 -100.09
2136.136  0.93842 -100.48
2139.940  0.93616 -100.69
2143.744  0.93686 -101.19
2147.548  0.93640 -101.25
2151.351  0.93424 -101.67
2155.155  0.93552 -102.15
2158.959  0.93287 -102.46
2162.763  0.93636 -102.70
2166.567  0.93648 -103.08
2170.370  0.93327 -103.23
2174.174  0.93488 -103.79
2177.978  0.93377 -104.30
2181.782  0.93565 -104.37
2185.586  0.93664 -104.82
2189.389  0.93329 -104.91
2193.193  0.93003 -105.25
2196.997  0.93413 -105.62
2200.801  0.93215 -106.08
2204.605  0.93426 -106.45
2208.408  0.93426 -107.00
2212.212  0.93286 -106.89
2216.016  0.93458 -107.54
2219.820  0.93351 -107.86
2223.624  0.93504 -107.92
2227.427  0.93255 -108.52
2231.231  0.93266 -108.77
2235.035  0.93379 -108.88
2238.839  0.93177 -109.52
2242.643  0.93084 -109.66
2246.446  0.93351 -110.01
2250.250  0.93434 -110.47
2254.054  0.92163 -110.35
2257.858  0.93148 -110.95
2261.662  0.93326 -111.18
2265.465  0.93112 -111.39
2269.269  0.92971 -111.89
2273.073  0.93756 -112.65
2276.877  0.93361 -112.59
2280.681  0.93628 -113.19
2284.484  0.93336 -113.63
2288.288  0.93297 -113.93
2292.092  0.93508 -114.45
2295.896  0.93674 -114.76
2299.700  0.93402 -115.27
2303.504  0.93571 -115.45
2307.307  0.93626 -115.99
2311.111  0.93398 -116.38
2314.915  0.93722 -116.64
2318.719  0.93654 -117.11
2322.523  0.93359 -117.47
2326.326  0.93574 -117.77
2330.130  0.93570 -118.37
2333.934  0.93469 -118.21
2337.738  0.93334 -119.05
2341.542  0.93330 -119.28
2345.345  0.93202 -119.47
2349.149  0.93390 -119.97
2352.953  0.93332 -120.22
2356.757  0.93200 -120.53
2360.561  0.93410 -121.08
2364.364  0.93253 -121.39
2368.168  0.93406 -122.00
2371.972  0.93323 -122.11
2375.776  0.93103 -122.55
2379.580  0.93127 -122.80
2383.383  0.93339 -123.30
2387.187  0.93490 -123.96
2390.991  0.93224 -123.98
2394.795  0.93328 -124.50
2398.599  0.93376 -124.84
2402.402  0.93195 -125.31
2406.206  0.93156 -125.59
2410.010  0.93289 -125.84
2413.814  0.93305 -126.33
2417.618  0.93206 -126.52
2421.421  0.93433 -127.13
2425.225  0.93346 -127.31
2429.029  0.93370 -127.82
2432.833  0.93575 -128.08
2436.637  0.93462 -128.37
2440.440  0.93542 -128.87
2444.244  0.93371 -128.98
2448.048  0.93615 -129.45
2451.852  0.93520 -129.66
2455.656  0.93693 -129.70
2459.459  0.93738 -130.31
2463.263  0.93780 -130.78
2467.067  0.93709 -131.06
2470.871  0.93562 -131.54
2474.675  0.93679 -131.80
2478.478  0.93678 -132.12
2482.282  0.93529 -132.47
2486.086  0.93771 -132.85
2489.890  0.93362 -133.12
2493.694  0.93725 -133.51
2497.497  0.93833 -133.94
2501.301  0.93603 -134.10
2505.105  0.93524 -134.40
2508.909  0.93574 -134.71
2512.713  0.93594 -135.22
2516.517  0.93559 -135.41
2520.320  0.93540 -135.71
2524.124  0.93328 -136.03
2527.928  0.93358 -136.57
2531.732  0.93237 -136.71
2535.536  0.93028 -137.02
2539.339  0.92954 -137.14
2543.143  0.93060 -137.53
2546.947  0.92882 -137.89
2550.751  0.92909 -138.06
2554.555  0.92978 -138.36
2558.358  0.92904 -138.39
2562.162  0.92832 -138.40
2565.966  0.93233 -138.64
2569.770  0.93503 -138.78
2573.574  0.93614 -139.23
2577.377  0.93933 -139.46
2581.181  0.94131 -139.88
2584.985  0.94477 -140.26
2588.789  0.94583 -140.49
2592.593  0.94730 -140.85
2596.396  0.95004 -141.15
2600.200  0.95088 -141.75
2604.004  0.94984 -142.14
2607.808  0.95004 -142.47
2611.612  0.94743 -142.69
2615.415  0.94705 -143.28
2619.219  0.94635 -143.62
2623.023  0.94455 -144.04
2626.827  0.94189 -144.02
2630.631  0.94063 -144.64
2634.434  0.93981 -144.80
2638.238  0.93764 -145.17
2642.042  0.93791 -145.16
2645.846  0.93762 -145.51
2649.650  0.93779 -145.77
2653.453  0.93298 -146.23
2657.257  0.93698 -146.34
2661.061  0.93623 -146.74
2664.865  0.93499 -146.81
2668.669  0.93653 -147.25
2672.472  0.93496 -147.62
2676.276  0.93350 -147.50
2680.080  0.93414 -148.25
2683.884  0.93023 -147.98
2687.688  0.93333 -148.53
2691.491  0.92990 -148.85
2695.295  0.93299 -148.97
2699.099  0.93416 -149.35
2702.903  0.93330 -149.40
2706.707  0.93129 -149.49
2710.511  0.93275 -150.10
2714.314  0.93074 -150.62
2718.118  0.93348 -150.68
2721.922  0.92895 -151.11
2725.726  0.93081 -151.39
2729.530  0.92684 -151.54
2733.333  0.92771 -151.23
2737.137  0.92569 -152.00
2740.941  0.93006 -152.19
2744.745  0.93051 -152.89
2748.549  0.92674 -153.14
2752.352  0.92675 -153.12
2756.156  0.92654 -153.30
2759.960  0.92611 -153.86
2763.764  0.92504 -153.91
2767.568  0.92374 -154.49
2771.371  0.92382 -154.50
2775.175  0.92324 -155.03
2778.979  0.92480 -155.34
2782.783  0.92181 -155.89
2786.587  0.92184 -155.68
2790.390  0.92553 -156.22
2794.194  0.92506 -156.68
2797.998  0.92175 -157.04
2801.802  0.92274 -157.53
2805.606  0.92093 -158.18
2809.409  0.92269 -158.40
2813.213  0.92137 -159.11
2817.017  0.92149 -158.95
2820.821  0.92050 -159.39
2824.625  0.92015 -159.94
2828.428  0.91853 -160.35
2832.232  0.91828 -161.15
2836.036  0.91626 -161.29
2839.840  0.91639 -161.89
2843.644  0.91545 -161.94
2847.447  0.91664 -162.36
2851.251  0.91431 -163.02
2855.055  0.91339 -163.29
2858.859  0.91221 -163.79
2862.663  0.90984 -164.43
2866.466  0.91048 -164.72
2870.270  0.90980 -164.97
2874.074  0.91028 -165.78
2877.878  0.90826 -166.41
2881.682  0.90885 -166.50
2885.485  0.90661 -166.91
2889.289  0.90640 -167.30
2893.093  0.90595 -168.00
2896.897  0.90514 -168.24
2900.701  0.90308 -169.13
2904.505  0.90223 -169.20
2908.308  0.90285 -169.95
2912.112  0.90158 -170.33
2915.916  0.90107 -170.83
2919.720  0.89913 -171.42
2923.524  0.89838 -171.74
2927.327  0.89681 -172.26
2931.131  0.89603 -172.87
2934.935  0.89452 -173.65
2938.739  0.89521 -174.01
2942.543  0.89246 -174.69
2946.346  0.89389 -175.35
2950.150  0.89114 -175.83
2953.954  0.88921 -176.23
2957.758  0.89027 -176.91
2961.562  0.88752 -177.37
2965.365  0.88610 -177.97
2969.169  0.88707 -178.66
2972.973  0.88486 -179.22
2976.777  0.88426 -179.72
2980.581  0.88201  179.39
2984.384  0.88182  178.97
2988.188  0.87898  178.48
2991.992  0.88067  177.66
2995.796  0.87639  176.95
2999.600  0.87689  176.27
3003.403  0.87517  175.77
3007.207  0.87242  175.33
3011.011  0.87334  174.29
3014.815  0.87315  173.67
3018.619  0.87124  173.15
3022.422  0.86903  172.34
3026.226  0.86911  171.92
3030.030  0.86705  170.90
3033.834  0.86588  170.30
3037.638  0.86373  169.63
3041.441  0.86314  168.82
3045.245  0.86212  168.08
3049.049  0.85943  167.06
3052.853  0.85755  166.32
3056.657  0.85231  165.74
3060.460  0.84288  164.88
3064.264  0.84258  164.30
3068.068  0.84069  163.51
3071.872  0.83442  162.99
3075.676  0.83293  162.39
3079.479  0.83060  161.54
3083.283  0.82762  161.24
3087.087  0.82755  160.42
3090.891  0.82880  159.90
3094.695  0.82909  159.20
3098.498  0.82870  158.37
3102.302  0.82825  157.55
3106.106  0.82976  156.97
3109.910  0.82961  155.96
3113.714  0.82636  155.14
