# MHz S MA R 50
!   freq        S11       
 200.000  0.98523  -54.40
 203.804  0.98449  -55.32
 207.608  0.98462  -56.34
 211.411  0.98347  -57.34
 215.215  0.98343  -58.20
 219.019  0.98354  -59.04
 222.823  0.98391  -60.07
 226.627  0.98133  -60.99
 230.430  0.98279  -61.97
 234.234  0.98246  -62.86
 238.038  0.98251  -63.76
 241.842  0.98104  -64.58
 245.646  0.98038  -65.62
 249.449  0.98098  -66.42
 253.253  0.98089  -67.41
 257.057  0.98086  -68.31
 260.861  0.98040  -69.31
 264.665  0.97972  -70.06
 268.468  0.97915  -70.95
 272.272  0.97960  -71.94
 276.076  0.97931  -72.86
 279.880  0.97945  -73.67
 283.684  0.97949  -74.54
 287.487  0.98108  -75.45
 291.291  0.97947  -76.31
 295.095  0.97791  -77.18
 298.899  0.97908  -78.06
 302.703  0.97915  -79.02
 306.507  0.97980  -79.79
 310.310  0.97725  -80.66
 314.114  0.97891  -81.61
 317.918  0.97826  -82.34
 321.722  0.97705  -83.18
 325.526  0.97743  -84.03
 329.329  0.97650  -84.87
 333.133  0.97734  -85.76
 336.937  0.97797  -86.53
 340.741  0.97799  -87.41
 344.545  0.97751  -88.24
 348.348  0.97781  -89.06
 352.152  0.97721  -89.88
 355.956  0.97797  -90.77
 359.760  0.97578  -91.54
 363.564  0.97783  -92.39
 367.367  0.97576  -93.17
 371.171  0.97770  -94.03
 374.975  0.97738  -94.82
 378.779  0.97728  -95.63
 382.583  0.97642  -96.36
 386.386  0.97662  -97.19
 390.190  0.97734  -97.98
 393.994  0.97611  -98.77
 397.798  0.97597  -99.52
 401.602  0.97751 -100.30
 405.405  0.97542 -101.07
 409.209  0.97674 -101.99
 413.013  0.97526 -102.69
 416.817  0.97685 -103.47
 420.621  0.97845 -104.30
 424.424  0.97659 -105.20
 428.228  0.97653 -105.87
 432.032  0.97780 -106.65
 435.836  0.97900 -107.43
 439.640  0.97785 -108.16
 443.443  0.97689 -108.88
 447.247  0.97849 -109.68
 451.051  0.97717 -110.42
 454.855  0.97654 -111.04
 458.659  0.97801 -111.92
 462.462  0.97497 -112.43
 466.266  0.97678 -113.18
 470.070  0.97435 -114.00
 473.874  0.97344 -114.60
 477.678  0.97555 -115.37
 481.481  0.97497 -116.05
 485.285  0.97541 -116.81
 489.089  0.97701 -117.65
 492.893  0.97593 -118.35
 496.697  0.97685 -119.01
 500.501  0.97837 -119.72
 504.304  0.97795 -120.55
 508.108  0.97877 -121.26
 511.912  0.97740 -121.87
 515.716  0.97866 -122.56
 519.520  0.97894 -123.30
 523.323  0.97767 -123.91
 527.127  0.97884 -124.63
 530.931  0.97884 -125.34
 534.735  0.97853 -126.07
 538.539  0.97826 -126.73
 542.342  0.97738 -127.37
 546.146  0.97871 -128.13
 549.950  0.97849 -128.83
 553.754  0.97735 -129.46
 557.558  0.97728 -130.05
 561.361  0.97900 -130.77
 565.165  0.97674 -131.50
 568.969  0.97690 -132.15
 572.773  0.97678 -132.78
 576.577  0.97657 -133.44
 580.380  0.97636 -134.15
 584.184  0.97543 -134.87
 587.988  0.97557 -135.50
 591.792  0.97585 -136.19
 595.596  0.97658 -136.86
 599.399  0.97510 -137.49
 603.203  0.97465 -138.22
 607.007  0.97513 -138.93
 610.811  0.97555 -139.56
 614.615  0.97571 -140.26
 618.418  0.97569 -140.86
 622.222  0.97499 -141.58
 626.026  0.97474 -142.23
 629.830  0.97467 -142.86
 633.634  0.97511 -143.59
 637.437  0.97349 -144.11
 641.241  0.97461 -144.86
 645.045  0.97506 -145.57
 648.849  0.97443 -146.18
 652.653  0.97475 -146.78
 656.456  0.97418 -147.46
 660.260  0.97490 -148.22
 664.064  0.97291 -148.98
 667.868  0.97280 -149.48
 671.672  0.97225 -150.28
 675.475  0.97305 -150.89
 679.279  0.97220 -151.56
 683.083  0.97272 -152.25
 686.887  0.97231 -152.96
 690.691  0.97188 -153.60
 694.494  0.97136 -154.25
 698.298  0.97131 -154.92
 702.102  0.97134 -155.62
 705.906  0.96960 -156.52
 709.710  0.97059 -156.95
 713.514  0.96937 -157.73
 717.317  0.97002 -158.35
 721.121  0.97089 -159.12
 724.925  0.97121 -159.75
 728.729  0.97020 -160.38
 732.533  0.96946 -161.11
 736.336  0.97106 -161.89
 740.140  0.96927 -162.53
 743.944  0.96955 -163.22
 747.748  0.96873 -163.98
 751.552  0.96804 -164.73
 755.355  0.96977 -165.50
 759.159  0.97081 -166.18
 762.963  0.96720 -166.79
 766.767  0.96810 -167.61
 770.571  0.96848 -168.37
 774.374  0.96794 -168.86
 778.178  0.96764 -169.82
 781.982  0.96652 -170.43
 785.786  0.96627 -171.23
 789.590  0.96577 -171.86
 793.393  0.96520 -172.61
 797.197  0.96419 -173.45
 801.001  0.96560 -174.10
 804.805  0.96342 -174.70
 808.609  0.96430 -175.48
 812.412  0.96392 -176.21
 816.216  0.96400 -177.06
 820.020  0.96381 -177.84
 823.824  0.96524 -178.59
 827.628  0.96520 -179.36
 831.431  0.96435  179.82
 835.235  0.96362  179.24
 839.039  0.96346  178.38
 842.843  0.96152  177.53
 846.647  0.96198  176.83
 850.450  0.96252  175.97
 854.254  0.96201  175.36
 858.058  0.95967  174.46
 861.862  0.96054  173.74
 865.666  0.96048  172.93
 869.469  0.95866  172.11
 873.273  0.96216  171.34
 877.077  0.95924  170.52
 880.881  0.95930  169.76
 884.685  0.95898  169.04
 888.488  0.95863  168.20
 892.292  0.95873  167.33
 896.096  0.95875  166.55
 899.900  0.95809  165.75
 903.704  0.95740  164.88
 907.508  0.95767  164.01
 911.311  0.95643  163.34
 915.115  0.95821  162.41
 918.919  0.95520  161.73
 922.723  0.95633  160.61
 926.527  0.95446  159.88
 930.330  0.95458  159.10
 934.134  0.95455  158.21
 937.938  0.95453  157.26
 941.742  0.95484  156.50
 945.546  0.95260  155.52
 949.349  0.95261  154.78
 953.153  0.95284  153.84
 956.957  0.95248  152.98
 960.761  0.95211  152.09
 964.565  0.95186  151.16
 968.368  0.95037  150.34
 972.172  0.94992  149.37
 975.976  0.94973  148.50
 979.780  0.94972  147.59
 983.584  0.95013  146.63
 987.387  0.94961  145.76
 991.191  0.94907  144.84
 994.995  0.94769  143.95
 998.799  0.94724  143.05
1002.603  0.94699  142.13
1006.406  0.94593  141.22
1010.210  0.94693  140.31
1014.014  0.94569  139.38
1017.818  0.94631  138.38
1021.622  0.94544  137.50
1025.425  0.94548  136.51
1029.229  0.94498  135.56
1033.033  0.94470  134.55
1036.837  0.94259  133.73
1040.641  0.94146  132.69
1044.444  0.94130  131.63
1048.248  0.94203  130.57
1052.052  0.94263  129.63
1055.856  0.93993  128.74
1059.660  0.93918  127.71
1063.463  0.93817  126.54
1067.267  0.93765  125.72
1071.071  0.93608  124.72
1074.875  0.93653  123.60
1078.679  0.93654  122.58
1082.482  0.93466  121.50
1086.286  0.93485  120.44
1090.090  0.93407  119.37
1093.894  0.93281  118.36
1097.698  0.93294  117.34
1101.502  0.93192  116.19
1105.305  0.92962  115.26
1109.109  0.93000  114.11
1112.913  0.92703  113.11
1116.717  0.92696  111.78
1120.521  0.92583  110.57
1124.324  0.92555  109.65
1128.128  0.92258  108.49
1131.932  0.92365  107.36
1135.736  0.92249  106.22
1139.540  0.92239  105.00
1143.343  0.91945  103.93
1147.147  0.92208  102.80
1150.951  0.92251  101.74
1154.755  0.91757  100.39
1158.559  0.91817   99.10
1162.362  0.91886   98.14
1166.166  0.91827   96.93
1169.970  0.91701   95.52
1173.774  0.91836   94.48
1177.578  0.91459   93.32
1181.381  0.91477   91.88
1185.185  0.91423   90.78
1188.989  0.91335   89.64
1192.793  0.91521   88.37
1196.597  0.91534   87.13
1200.400  0.91314   85.90
1204.204  0.91239   84.74
1208.008  0.91255   83.29
1211.812  0.91212   82.13
1215.616  0.90892   80.98
1219.419  0.90868   79.55
1223.223  0.91204   78.19
1227.027  0.90862   76.98
1230.831  0.90558   75.74
1234.635  0.90685   74.28
1238.438  0.90860   73.13
1242.242  0.90705   71.77
1246.046  0.90361   70.57
1249.850  0.90550   69.08
1253.654  0.90452   67.83
1257.457  0.90230   66.72
1261.261  0.90292   65.46
1265.065  0.90248   64.14
1268.869  0.90443   62.48
1272.673  0.90101   61.40
1276.476  0.89921   60.15
1280.280  0.90299   58.71
1284.084  0.90156   57.41
1287.888  0.90243   56.14
1291.692  0.90341   54.94
1295.495  0.90329   53.52
1299.299  0.90553   52.27
1303.103  0.90169   50.95
1306.907  0.90192   49.76
1310.711  0.90056   48.47
1314.515  0.90152   47.05
1318.318  0.89978   45.77
1322.122  0.90283   44.52
1325.926  0.90194   43.18
1329.730  0.90023   41.98
1333.534  0.90242   40.71
1337.337  0.89958   39.45
1341.141  0.89817   38.02
1344.945  0.89844   36.73
1348.749  0.89717   35.40
1352.553  0.89673   34.05
1356.356  0.89573   32.78
1360.160  0.89448   31.54
1363.964  0.89549   30.30
1367.768  0.89346   29.14
1371.572  0.89441   27.76
1375.375  0.89476   26.58
1379.179  0.89447   25.34
1382.983  0.89440   24.20
1386.787  0.89366   22.98
1390.591  0.89326   21.65
1394.394  0.89418   20.47
1398.198  0.89442   19.33
1402.002  0.89477   18.06
1405.806  0.89517   16.90
1409.610  0.89444   15.77
1413.413  0.89509   14.48
1417.217  0.89513   13.32
1421.021  0.89533   12.05
1424.825  0.89620   10.83
1428.629  0.89618    9.78
1432.432  0.89721    8.61
1436.236  0.89597    7.46
1440.040  0.89722    6.35
1443.844  0.89814    5.31
1447.648  0.89688    4.16
1451.451  0.89710    3.00
1455.255  0.89808    1.85
1459.059  0.89742    0.77
1462.863  0.89672   -0.24
1466.667  0.89788   -1.37
1470.470  0.89786   -2.34
1474.274  0.89831   -3.41
1478.078  0.89840   -4.44
1481.882  0.89987   -5.63
1485.686  0.89913   -6.63
1489.489  0.90060   -7.65
1493.293  0.89979   -8.61
1497.097  0.90159   -9.59
1500.901  0.90139  -10.63
1504.705  0.89965  -11.61
1508.509  0.90201  -12.66
1512.312  0.90167  -13.54
1516.116  0.90091  -14.61
1519.920  0.90206  -15.61
1523.724  0.90291  -16.49
1527.528  0.90243  -17.40
1531.331  0.90404  -18.38
1535.135  0.90352  -19.25
1538.939  0.90483  -20.20
1542.743  0.90340  -21.22
1546.547  0.90535  -22.17
1550.350  0.90425  -23.00
1554.154  0.90551  -23.94
1557.958  0.90483  -24.82
1561.762  0.90576  -25.73
1565.566  0.90620  -26.67
1569.369  0.90579  -27.48
1573.173  0.90735  -28.35
1576.977  0.90728  -29.22
1580.781  0.90982  -30.07
1584.585  0.90884  -30.86
1588.388  0.90845  -31.85
1592.192  0.90926  -32.54
1595.996  0.90904  -33.52
1599.800  0.90888  -34.35
1603.604  0.90879  -35.07
1607.407  0.91203  -35.83
1611.211  0.91083  -36.89
1615.015  0.90979  -37.52
1618.819  0.91017  -38.32
1622.623  0.91190  -39.28
1626.426  0.91151  -39.91
1630.230  0.91276  -40.89
1634.034  0.91273  -41.65
1637.838  0.91339  -42.29
1641.642  0.91343  -43.32
1645.445  0.91523  -44.04
1649.249  0.91421  -44.80
1653.053  0.91464  -45.60
1656.857  0.91578  -46.47
1660.661  0.91485  -47.15
1664.464  0.91503  -47.92
1668.268  0.91552  -48.68
1672.072  0.91630  -49.25
1675.876  0.91667  -50.06
1679.680  0.91616  -51.05
1683.483  0.91859  -51.61
1687.287  0.91863  -52.42
1691.091  0.91799  -53.11
1694.895  0.91911  -53.91
1698.699  0.91819  -54.57
1702.503  0.91828  -55.34
1706.306  0.91849  -55.98
1710.110  0.91912  -56.66
1713.914  0.91602  -57.44
1717.718  0.91848  -57.99
1721.522  0.91901  -58.82
1725.325  0.91697  -59.37
1729.129  0.91734  -60.13
1732.933  0.91797  -60.80
1736.737  0.91794  -61.49
1740.541  0.91839  -62.15
1744.344  0.91886  -62.93
1748.148  0.92006  -63.43
1751.952  0.92038  -64.11
1755.756  0.91960  -64.84
1759.560  0.92107  -65.50
1763.363  0.92039  -66.09
1767.167  0.92341  -66.66
1770.971  0.92331  -67.24
1774.775  0.92419  -67.81
1778.579  0.92582  -68.37
1782.382  0.92579  -69.03
1786.186  0.92529  -69.52
1789.990  0.92724  -70.19
1793.794  0.92915  -70.99
1797.598  0.92791  -71.37
1801.401  0.93077  -72.08
1805.205  0.93015  -72.86
1809.009  0.93062  -73.23
1812.813  0.92838  -73.91
1816.617  0.92828  -74.56
1820.420  0.93050  -75.02
1824.224  0.93000  -75.67
1828.028  0.93095  -76.35
1831.832  0.93137  -76.71
1835.636  0.93183  -77.45
1839.439  0.93038  -77.93
1843.243  0.93148  -78.78
1847.047  0.93145  -79.34
1850.851  0.93459  -79.56
1854.655  0.93354  -80.05
1858.458  0.93592  -80.63
1862.262  0.93396  -81.13
1866.066  0.93513  -81.74
1869.870  0.93675  -82.21
1873.674  0.93589  -82.91
1877.477  0.93680  -83.31
1881.281  0.93832  -83.84
1885.085  0.93975  -84.33
1888.889  0.93903  -84.94
1892.693  0.93868  -85.18
1896.496  0.93832  -85.82
1900.300  0.94059  -86.33
1904.104  0.93873  -86.86
1907.908  0.93981  -87.18
1911.712  0.94096  -87.68
1915.516  0.93924  -88.05
1919.319  0.94159  -88.69
1923.123  0.94301  -89.19
1926.927  0.93837  -89.63
1930.731  0.93882  -90.00
1934.535  0.93992  -90.47
1938.338  0.94240  -90.92
1942.142  0.94169  -91.38
1945.946  0.94223  -91.62
1949.750  0.94101  -92.30
1953.554  0.94306  -92.68
1957.357  0.94653  -93.07
1961.161  0.94345  -93.50
1964.965  0.94294  -93.91
1968.769  0.94303  -94.23
1972.573  0.94421  -94.69
1976.376  0.94144  -95.10
1980.180  0.94047  -95.50
1983.984  0.94084  -96.08
1987.788  0.94280  -96.45
1991.592  0.94344  -96.79
1995.395  0.94263  -96.88
1999.199  0.94128  -97.56
2003.003  0.94108  -97.97
2006.807  0.94309  -98.30
2010.611  0.94229  -98.81
2014.414  0.94312  -99.17
2018.218  0.94025  -99.50
2022.022  0.94089  -99.95
2025.826  0.94265 -100.33
2029.630  0.94097 -100.50
2033.433  0.93945 -100.87
2037.237  0.94021 -101.21
2041.041  0.93934 -101.62
2044.845  0.93979 -101.95
2048.649  0.94214 -102.46
2052.452  0.94275 -102.63
2056.256  0.94285 -102.91
2060.060  0.94510 -103.28
2063.864  0.94377 -103.44
2067.668  0.94457 -104.02
2071.471  0.94358 -104.19
2075.275  0.94765 -104.58
2079.079  0.94514 -104.89
2082.883  0.94800 -105.27
2086.687  0.94830 -105.70
2090.490  0.94947 -106.22
2094.294  0.95231 -106.69
2098.098  0.95290 -106.92
2101.902  0.95242 -107.32
2105.706  0.95197 -107.59
2109.510  0.95166 -107.96
2113.313  0.95165 -108.30
2117.117  0.95079 -108.71
2120.921  0.95397 -109.37
2124.725  0.95055 -109.55
2128.529  0.95020 -109.93
2132.332  0.95119 -110.45
2136.136  0.95002 -110.67
2139.940  0.94991 -110.91
2143.744  0.94909 -111.23
2147.548  0.94891 -111.69
2151.351  0.94660 -111.71
2155.155  0.94833 -112.47
2158.959  0.94618 -112.52
2162.763  0.94850 -113.12
2166.567  0.94896 -113.23
2170.370  0.94637 -113.54
2174.174  0.94821 -114.06
2177.978  0.94857 -114.42
2181.782  0.94992 -114.71
2185.586  0.94779 -114.91
2189.389  0.94695 -115.39
2193.193  0.94394 -115.59
2196.997  0.94638 -115.75
2200.801  0.94650 -116.45
2204.605  0.94783 -116.60
2208.408  0.94752 -116.92
2212.212  0.94812 -117.39
2216.016  0.94625 -117.69
2219.820  0.94582 -117.84
2223.624  0.94675 -118.16
2227.427  0.94583 -118.90
2231.231  0.94510 -118.98
2235.035  0.94602 -119.17
2238.839  0.94368 -119.92
2242.643  0.94657 -119.96
2246.446  0.94625 -120.20
2250.250  0.94768 -120.58
2254.054  0.93468 -120.70
2257.858  0.94492 -121.58
2261.662  0.94503 -121.46
2265.465  0.94372 -122.33
2269.269  0.94455 -122.71
2273.073  0.94752 -122.86
2276.877  0.94532 -123.21
2280.681  0.94593 -123.81
2284.484  0.94671 -124.21
2288.288  0.94688 -124.34
2292.092  0.94644 -124.96
2295.896  0.94788 -125.54
2299.700  0.94540 -125.73
2303.504  0.94776 -126.23
2307.307  0.94611 -126.85
2311.111  0.94403 -126.89
2314.915  0.94926 -127.11
2318.719  0.94552 -127.76
2322.523  0.94576 -127.93
2326.326  0.94489 -128.89
2330.130  0.94602 -129.15
2333.934  0.94434 -129.42
2337.738  0.94249 -129.79
2341.542  0.94509 -130.24
2345.345  0.94382 -130.48
2349.149  0.94462 -130.72
2352.953  0.94492 -131.22
2356.757  0.94298 -131.67
2360.561  0.94245 -132.11
2364.364  0.94054 -132.70
2368.168  0.94350 -133.07
2371.972  0.94582 -133.48
2375.776  0.94095 -133.74
2379.580  0.94352 -134.17
2383.383  0.94146 -134.66
2387.187  0.94390 -135.21
2390.991  0.94221 -135.33
2394.795  0.94188 -136.03
2398.599  0.94185 -136.37
2402.402  0.94182 -136.64
2406.206  0.94193 -137.22
2410.010  0.94179 -137.42
2413.814  0.94232 -137.81
2417.618  0.94144 -138.32
2421.421  0.94410 -138.74
2425.225  0.94319 -139.17
2429.029  0.94355 -139.42
2432.833  0.94319 -139.84
2436.637  0.94364 -140.36
2440.440  0.94332 -140.64
2444.244  0.94350 -141.02
2448.048  0.94422 -141.43
2451.852  0.94270 -141.71
2455.656  0.94459 -141.59
2459.459  0.94508 -142.60
2463.263  0.94404 -143.03
2467.067  0.94484 -143.36
2470.871  0.94340 -143.69
2474.675  0.94377 -144.17
2478.478  0.94471 -144.51
2482.282  0.94288 -145.01
2486.086  0.94348 -145.22
2489.890  0.94025 -145.54
2493.694  0.94248 -145.92
2497.497  0.94305 -146.49
2501.301  0.94320 -147.01
2505.105  0.94049 -147.10
2508.909  0.94168 -147.74
2512.713  0.94074 -148.19
2516.517  0.94084 -148.40
2520.320  0.93969 -148.74
2524.124  0.93680 -149.31
2527.928  0.93686 -149.61
2531.732  0.93798 -149.93
2535.536  0.93513 -150.10
2539.339  0.93547 -150.49
2543.143  0.93527 -151.07
2546.947  0.93358 -151.29
2550.751  0.93432 -151.68
2554.555  0.93380 -151.88
2558.358  0.93339 -152.02
2562.162  0.93461 -152.22
2565.966  0.93731 -152.51
2569.770  0.94091 -152.71
2573.574  0.94147 -153.28
2577.377  0.94524 -153.72
2581.181  0.94632 -154.14
2584.985  0.94937 -154.68
2588.789  0.94737 -155.10
2592.593  0.94846 -155.85
2596.396  0.94785 -156.03
2600.200  0.94719 -156.69
2604.004  0.94475 -157.12
2607.808  0.94288 -157.50
2611.612  0.94045 -157.84
2615.415  0.93990 -158.29
2619.219  0.93974 -158.48
2623.023  0.93856 -158.77
2626.827  0.93766 -159.07
2630.631  0.93508 -159.72
2634.434  0.93619 -160.06
2638.238  0.93466 -160.42
2642.042  0.93454 -160.83
2645.846  0.93513 -161.23
2649.650  0.93256 -161.57
2653.453  0.93153 -161.97
2657.257  0.93767 -162.38
2661.061  0.93277 -162.84
2664.865  0.93191 -163.35
2668.669  0.93175 -163.75
2672.472  0.93030 -164.07
2676.276  0.93038 -164.25
2680.080  0.92800 -164.85
2683.884  0.92836 -164.98
2687.688  0.92730 -166.03
2691.491  0.92400 -166.18
2695.295  0.92501 -166.61
2699.099  0.92659 -167.11
2702.903  0.92781 -167.50
2706.707  0.92493 -167.70
2710.511  0.92542 -168.37
2714.314  0.92298 -169.01
2718.118  0.92317 -169.52
2721.922  0.92115 -170.11
2725.726  0.91959 -170.59
2729.530  0.91792 -171.00
2733.333  0.91858 -170.96
2737.137  0.91743 -171.71
2740.941  0.91758 -172.35
2744.745  0.91611 -173.33
2748.549  0.91663 -173.46
2752.352  0.91358 -173.85
2756.156  0.90928 -174.22
2759.960  0.91297 -175.17
2763.764  0.90860 -175.46
2767.568  0.90832 -176.43
2771.371  0.90809 -176.52
2775.175  0.90862 -177.15
2778.979  0.90499 -178.06
2782.783  0.90315 -178.51
2786.587  0.90430 -178.77
2790.390  0.90377 -179.47
2794.194  0.90096  179.46
2797.998  0.89960  179.19
2801.802  0.89916  178.31
2805.606  0.89763  177.88
2809.409  0.89688  176.96
2813.213  0.89364  176.21
2817.017  0.89540  175.75
2820.821  0.89321  175.12
2824.625  0.89120  174.67
2828.428  0.88866  173.58
2832.232  0.88791  172.81
2836.036  0.88589  171.99
2839.840  0.88374  171.32
2843.644  0.88364  170.72
2847.447  0.88086  170.05
2851.251  0.87967  169.02
2855.055  0.87625  168.22
2858.859  0.87551  167.62
2862.663  0.87167  166.70
2866.466  0.87225  166.09
2870.270  0.86973  165.18
2874.074  0.86665  163.81
2877.878  0.86623  163.29
2881.682  0.86313  162.47
2885.485  0.86055  161.59
2889.289  0.85929  160.68
2893.093  0.85645  159.79
2896.897  0.85624  158.77
2900.701  0.85249  157.79
2904.505  0.85206  157.03
2908.308  0.84800  155.96
2912.112  0.84835  154.90
2915.916  0.84507  153.96
2919.720  0.84455  153.04
2923.524  0.84187  152.13
2927.327  0.83909  151.17
2931.131  0.83804  150.07
2934.935  0.83353  148.91
2938.739  0.83147  147.94
2942.543  0.83042  146.55
2946.346  0.82835  145.62
2950.150  0.82619  144.39
2953.954  0.82454  143.33
2957.758  0.82355  142.13
2961.562  0.82097  140.99
2965.365  0.81767  139.82
2969.169  0.81637  138.49
2972.973  0.81447  137.27
2976.777  0.81203  135.95
2980.581  0.80853  134.46
2984.384  0.80727  133.38
2988.188  0.80510  132.24
2991.992  0.80347  130.71
2995.796  0.79708  129.20
2999.600  0.79487  127.79
3003.403  0.79206  126.44
3007.207  0.78700  125.13
3011.011  0.78377  123.43
3014.815  0.77805  122.27
3018.619  0.77771  120.79
3022.422  0.77130  119.23
3026.226  0.76764  118.10
3030.030  0.76287  116.74
3033.834  0.75835  115.45
3037.638  0.75461  113.92
3041.441  0.75288  112.72
3045.245  0.75214  111.17
3049.049  0.74495  109.67
3052.853  0.74210  108.36
3056.657  0.73939  106.88
3060.460  0.73642  105.17
3064.264  0.73359  104.08
3068.068  0.73012  102.68
3071.872  0.72569  101.40
3075.676  0.72747   99.75
3079.479  0.72672   97.96
3083.283  0.72771   96.42
3087.087  0.72574   94.93
3090.891  0.72501   93.14
3094.695  0.72286   91.49
3098.498  0.72611   89.60
3102.302  0.72513   87.78
3106.106  0.72278   86.32
3109.910  0.72194   84.31
3113.714  0.72005   82.65
