# MHz S MA R 50
!   freq        S11       
 200.000  0.98539  -51.96
 203.804  0.98565  -52.84
 207.608  0.98582  -53.83
 211.411  0.98367  -54.69
 215.215  0.98491  -55.58
 219.019  0.98398  -56.49
 222.823  0.98405  -57.31
 226.627  0.98271  -58.32
 230.430  0.98303  -59.14
 234.234  0.98244  -60.03
 238.038  0.98279  -60.93
 241.842  0.98139  -61.68
 245.646  0.98129  -62.62
 249.449  0.98146  -63.51
 253.253  0.98027  -64.36
 257.057  0.98061  -65.28
 260.861  0.97990  -66.19
 264.665  0.97985  -66.93
 268.468  0.97995  -67.82
 272.272  0.97925  -68.65
 276.076  0.98052  -69.56
 279.880  0.98014  -70.38
 283.684  0.98016  -71.25
 287.487  0.98105  -72.11
 291.291  0.97973  -72.93
 295.095  0.97929  -73.74
 298.899  0.97990  -74.58
 302.703  0.97991  -75.50
 306.507  0.97976  -76.26
 310.310  0.97774  -77.10
 314.114  0.97986  -77.95
 317.918  0.97968  -78.72
 321.722  0.97690  -79.51
 325.526  0.97770  -80.34
 329.329  0.97749  -81.09
 333.133  0.97704  -81.97
 336.937  0.97758  -82.73
 340.741  0.97847  -83.56
 344.545  0.97821  -84.38
 348.348  0.97842  -85.12
 352.152  0.97733  -85.94
 355.956  0.97855  -86.76
 359.760  0.97579  -87.55
 363.564  0.97663  -88.31
 367.367  0.97714  -89.09
 371.171  0.97799  -89.84
 374.975  0.97754  -90.67
 378.779  0.97779  -91.42
 382.583  0.97579  -92.13
 386.386  0.97732  -92.87
 390.190  0.97670  -93.68
 393.994  0.97648  -94.46
 397.798  0.97694  -95.15
 401.602  0.97707  -95.86
 405.405  0.97626  -96.66
 409.209  0.97739  -97.51
 413.013  0.97735  -98.22
 416.817  0.97659  -98.89
 420.621  0.97753  -99.71
 424.424  0.97742 -100.56
 428.228  0.97676 -101.21
 432.032  0.97800 -101.90
 435.836  0.97840 -102.62
 439.640  0.97752 -103.35
 443.443  0.97712 -104.12
 447.247  0.97876 -104.83
 451.051  0.97782 -105.60
 454.855  0.97641 -106.15
 458.659  0.97791 -107.00
 462.462  0.97515 -107.47
 466.266  0.97658 -108.15
 470.070  0.97473 -108.91
 473.874  0.97400 -109.53
 477.678  0.97529 -110.25
 481.481  0.97462 -110.89
 485.285  0.97583 -111.65
 489.089  0.97731 -112.42
 492.893  0.97578 -113.09
 496.697  0.97701 -113.77
 500.501  0.97912 -114.43
 504.304  0.98122 -115.13
 508.108  0.97858 -115.86
 511.912  0.97772 -116.42
 515.716  0.97873 -117.17
 519.520  0.97800 -117.78
 523.323  0.97714 -118.41
 527.127  0.97778 -119.08
 530.931  0.97829 -119.78
 534.735  0.97758 -120.43
 538.539  0.97800 -121.11
 542.342  0.97705 -121.71
 546.146  0.97882 -122.42
 549.950  0.97762 -123.07
 553.754  0.97794 -123.73
 557.558  0.97737 -124.31
 561.361  0.97904 -124.96
 565.165  0.97604 -125.63
 568.969  0.97649 -126.27
 572.773  0.97631 -126.85
 576.577  0.97573 -127.51
 580.380  0.97626 -128.13
 584.184  0.97511 -128.85
 587.988  0.97468 -129.50
 591.792  0.97593 -130.08
 595.596  0.97600 -130.71
 599.399  0.97509 -131.33
 603.203  0.97439 -132.05
 607.007  0.97403 -132.69
 610.811  0.97482 -133.32
 614.615  0.97444 -133.90
 618.418  0.97403 -134.51
 622.222  0.97453 -135.21
 626.026  0.97352 -135.82
 629.830  0.97560 -136.39
 633.634  0.97395 -137.15
 637.437  0.97258 -137.70
 641.241  0.97403 -138.27
 645.045  0.97334 -138.92
 648.849  0.97341 -139.53
 652.653  0.97205 -140.21
 656.456  0.97293 -140.85
 660.260  0.97411 -141.45
 664.064  0.97213 -142.26
 667.868  0.97186 -142.75
 671.672  0.97139 -143.47
 675.475  0.97174 -144.03
 679.279  0.97060 -144.66
 683.083  0.97053 -145.32
 686.887  0.96998 -145.90
 690.691  0.97017 -146.55
 694.494  0.97106 -147.24
 698.298  0.96952 -147.94
 702.102  0.97016 -148.46
 705.906  0.96845 -149.23
 709.710  0.96782 -149.78
 713.514  0.96732 -150.44
 717.317  0.96781 -151.05
 721.121  0.96858 -151.82
 724.925  0.96932 -152.48
 728.729  0.96775 -153.00
 732.533  0.96818 -153.73
 736.336  0.96903 -154.34
 740.140  0.96674 -155.10
 743.944  0.96671 -155.70
 747.748  0.96710 -156.30
 751.552  0.96891 -157.21
 755.355  0.96696 -157.70
 759.159  0.96745 -158.45
 762.963  0.96441 -158.95
 766.767  0.96517 -159.76
 770.571  0.96388 -160.39
 774.374  0.96496 -161.07
 778.178  0.96436 -161.79
 781.982  0.96479 -162.42
 785.786  0.96436 -163.23
 789.590  0.96219 -163.80
 793.393  0.96248 -164.46
 797.197  0.96041 -165.23
 801.001  0.96146 -165.87
 804.805  0.95975 -166.53
 808.609  0.96137 -167.29
 812.412  0.96162 -168.01
 816.216  0.96160 -168.72
 820.020  0.96088 -169.41
 823.824  0.96166 -170.15
 827.628  0.96025 -170.88
 831.431  0.96122 -171.58
 835.235  0.96242 -172.30
 839.039  0.96027 -173.07
 842.843  0.95895 -173.79
 846.647  0.95910 -174.60
 850.450  0.95823 -175.27
 854.254  0.95806 -175.96
 858.058  0.95682 -176.63
 861.862  0.95819 -177.45
 865.666  0.95686 -178.23
 869.469  0.95557 -178.81
 873.273  0.95702 -179.55
 877.077  0.95589  179.50
 880.881  0.95437  178.86
 884.685  0.95488  178.14
 888.488  0.95469  177.29
 892.292  0.95477  176.58
 896.096  0.95369  175.83
 899.900  0.95211  175.02
 903.704  0.95190  174.29
 907.508  0.95401  173.27
 911.311  0.95211  172.65
 915.115  0.95236  171.75
 918.919  0.95137  171.36
 922.723  0.95185  170.31
 926.527  0.95020  169.47
 930.330  0.95026  168.63
 934.134  0.94882  167.87
 937.938  0.94900  167.10
 941.742  0.94949  166.26
 945.546  0.94731  165.43
 949.349  0.94794  164.57
 953.153  0.94831  163.75
 956.957  0.94779  162.93
 960.761  0.94556  162.08
 964.565  0.94532  161.30
 968.368  0.94556  160.36
 972.172  0.94424  159.52
 975.976  0.94487  158.63
 979.780  0.94245  157.80
 983.584  0.94373  156.92
 987.387  0.94313  156.07
 991.191  0.94252  155.26
 994.995  0.94114  154.34
 998.799  0.94118  153.45
1002.603  0.94013  152.55
1006.406  0.93975  151.76
1010.210  0.93935  150.85
1014.014  0.93886  149.87
1017.818  0.93865  149.06
1021.622  0.93849  148.03
1025.425  0.93850  147.18
1029.229  0.93796  146.27
1033.033  0.93704  145.25
1036.837  0.93579  144.41
1040.641  0.93500  143.46
1044.444  0.93334  142.48
1048.248  0.93515  141.46
1052.052  0.93468  140.52
1055.856  0.93263  139.49
1059.660  0.93159  138.65
1063.463  0.93103  137.53
1067.267  0.92995  136.72
1071.071  0.92866  135.73
1074.875  0.92909  134.61
1078.679  0.92872  133.68
1082.482  0.92746  132.59
1086.286  0.92649  131.58
1090.090  0.92520  130.60
1093.894  0.92417  129.55
1097.698  0.92440  128.55
1101.502  0.92354  127.51
1105.305  0.92189  126.54
1109.109  0.92074  125.59
1112.913  0.91803  124.12
1116.717  0.91914  123.31
1120.521  0.91836  122.11
1124.324  0.91704  121.07
1128.128  0.91381  119.94
1131.932  0.91511  118.71
1135.736  0.91287  117.75
1139.540  0.91239  116.53
1143.343  0.90943  115.43
1147.147  0.91081  114.37
1150.951  0.91123  113.18
1154.755  0.90937  111.98
1158.559  0.90857  110.60
1162.362  0.90849  109.72
1166.166  0.90827  108.38
1169.970  0.90604  107.26
1173.774  0.90620  106.17
1177.578  0.90294  104.94
1181.381  0.90506  103.69
1185.185  0.90346  102.40
1188.989  0.90278  101.36
1192.793  0.90392  100.03
1196.597  0.90140   98.98
1200.400  0.90084   97.54
1204.204  0.90050   96.35
1208.008  0.90002   94.99
1211.812  0.89970   93.83
1215.616  0.89719   92.54
1219.419  0.89584   91.12
1223.223  0.89897   89.76
1227.027  0.89537   88.70
1230.831  0.89262   87.29
1234.635  0.89421   85.99
1238.438  0.89364   84.78
1242.242  0.89326   83.41
1246.046  0.88925   82.11
1249.850  0.89151   80.54
1253.654  0.89030   79.31
1257.457  0.89228   78.18
1261.261  0.88943   76.71
1265.065  0.88878   75.44
1268.869  0.88971   73.92
1272.673  0.88651   72.65
1276.476  0.88615   71.32
1280.280  0.88604   70.19
1284.084  0.88718   68.71
1287.888  0.88848   67.28
1291.692  0.88771   66.13
1295.495  0.88618   64.69
1299.299  0.88920   63.40
1303.103  0.88568   61.92
1306.907  0.88610   60.79
1310.711  0.88554   59.27
1314.515  0.88959   58.08
1318.318  0.88546   56.66
1322.122  0.88723   55.41
1325.926  0.88549   54.17
1329.730  0.88689   52.69
1333.534  0.88527   51.43
1337.337  0.88413   50.09
1341.141  0.88248   48.55
1344.945  0.88352   47.28
1348.749  0.88322   45.70
1352.553  0.88126   44.51
1356.356  0.88046   43.17
1360.160  0.87941   41.83
1363.964  0.88108   40.45
1367.768  0.87744   39.19
1371.572  0.87810   37.81
1375.375  0.87804   36.51
1379.179  0.87812   35.34
1382.983  0.87752   33.92
1386.787  0.87799   32.70
1390.591  0.87709   31.41
1394.394  0.87754   30.12
1398.198  0.87870   28.82
1402.002  0.87833   27.59
1405.806  0.87830   26.26
1409.610  0.87777   25.08
1413.413  0.87855   23.78
1417.217  0.87951   22.53
1421.021  0.87897   21.25
1424.825  0.88000   19.99
1428.629  0.88002   18.74
1432.432  0.88151   17.43
1436.236  0.88069   16.32
1440.040  0.88216   15.11
1443.844  0.88183   13.96
1447.648  0.88172   12.77
1451.451  0.88152   11.47
1455.255  0.88216   10.41
1459.059  0.88216    9.26
1462.863  0.88173    7.99
1466.667  0.88288    6.93
1470.470  0.88437    5.84
1474.274  0.88381    4.72
1478.078  0.88459    3.68
1481.882  0.88527    2.47
1485.686  0.88473    1.38
1489.489  0.88639    0.42
1493.293  0.88641   -0.80
1497.097  0.88742   -1.77
1500.901  0.88877   -2.96
1504.705  0.88588   -4.07
1508.509  0.88843   -4.97
1512.312  0.88846   -6.01
1516.116  0.88810   -7.01
1519.920  0.89048   -8.20
1523.724  0.89038   -9.10
1527.528  0.89078  -10.15
1531.331  0.89099  -11.12
1535.135  0.89150  -12.06
1538.939  0.89215  -13.07
1542.743  0.89265  -14.00
1546.547  0.89295  -15.01
1550.350  0.89347  -15.98
1554.154  0.89532  -17.01
1557.958  0.89484  -17.83
1561.762  0.89491  -18.78
1565.566  0.89713  -19.66
1569.369  0.89647  -20.70
1573.173  0.89655  -21.57
1576.977  0.89703  -22.46
1580.781  0.89914  -23.37
1584.585  0.89906  -24.22
1588.388  0.89857  -25.26
1592.192  0.89922  -25.93
1595.996  0.90045  -26.84
1599.800  0.89982  -27.78
1603.604  0.90074  -28.57
1607.407  0.90242  -29.35
1611.211  0.90255  -30.23
1615.015  0.90244  -31.16
1618.819  0.90338  -31.92
1622.623  0.90344  -32.75
1626.426  0.90343  -33.47
1630.230  0.90415  -34.41
1634.034  0.90481  -35.15
1637.838  0.90580  -35.91
1641.642  0.90581  -36.87
1645.445  0.90692  -37.55
1649.249  0.90629  -38.23
1653.053  0.90625  -39.09
1656.857  0.90786  -39.96
1660.661  0.90773  -40.75
1664.464  0.90913  -41.50
1668.268  0.90928  -42.43
1672.072  0.90987  -42.97
1675.876  0.91068  -43.85
1679.680  0.90976  -44.51
1683.483  0.91151  -45.22
1687.287  0.91259  -45.92
1691.091  0.91276  -46.70
1694.895  0.91340  -47.49
1698.699  0.91340  -48.19
1702.503  0.91293  -48.99
1706.306  0.91444  -49.62
1710.110  0.91483  -50.33
1713.914  0.91436  -51.10
1717.718  0.91333  -51.68
1721.522  0.91376  -52.55
1725.325  0.91280  -52.99
1729.129  0.91245  -53.83
1732.933  0.91341  -54.34
1736.737  0.91461  -55.16
1740.541  0.91540  -55.77
1744.344  0.91542  -56.50
1748.148  0.91521  -56.98
1751.952  0.91522  -57.62
1755.756  0.91571  -58.34
1759.560  0.91730  -59.04
1763.363  0.91661  -59.72
1767.167  0.91843  -59.92
1770.971  0.91921  -60.76
1774.775  0.92152  -61.41
1778.579  0.92219  -61.81
1782.382  0.92237  -62.44
1786.186  0.92248  -63.05
1789.990  0.92581  -63.68
1793.794  0.92630  -64.25
1797.598  0.92567  -64.97
1801.401  0.92673  -65.46
1805.205  0.92806  -66.14
1809.009  0.92808  -66.50
1812.813  0.92538  -67.26
1816.617  0.92698  -67.84
1820.420  0.92957  -68.27
1824.224  0.92821  -68.86
1828.028  0.92830  -69.32
1831.832  0.93041  -69.95
1835.636  0.92968  -70.63
1839.439  0.92979  -71.12
1843.243  0.93118  -71.97
1847.047  0.93024  -72.35
1850.851  0.93270  -72.71
1854.655  0.93162  -73.30
1858.458  0.93319  -73.74
1862.262  0.93276  -74.33
1866.066  0.93242  -74.78
1869.870  0.93546  -75.20
1873.674  0.93606  -75.89
1877.477  0.93472  -76.31
1881.281  0.93519  -76.88
1885.085  0.93717  -77.46
1888.889  0.93821  -77.70
1892.693  0.93735  -78.32
1896.496  0.93643  -78.72
1900.300  0.93860  -79.17
1904.104  0.93928  -79.80
1907.908  0.93766  -80.00
1911.712  0.94109  -80.53
1915.516  0.93850  -80.89
1919.319  0.94206  -81.49
1923.123  0.94122  -81.90
1926.927  0.93809  -82.49
1930.731  0.93916  -82.87
1934.535  0.94004  -83.09
1938.338  0.94208  -83.51
1942.142  0.94092  -83.96
1945.946  0.94063  -84.44
1949.750  0.94056  -84.85
1953.554  0.94215  -85.25
1957.357  0.94541  -85.51
1961.161  0.94333  -86.16
1964.965  0.94233  -86.31
1968.769  0.94388  -86.81
1972.573  0.94444  -87.19
1976.376  0.94189  -87.75
1980.180  0.94141  -88.11
1983.984  0.93992  -88.42
1987.788  0.94128  -88.93
1991.592  0.94383  -89.11
1995.395  0.94167  -89.41
1999.199  0.94252  -89.90
2003.003  0.94242  -90.42
2006.807  0.94454  -90.63
2010.611  0.94277  -91.03
2014.414  0.94397  -91.54
2018.218  0.94177  -91.58
2022.022  0.94190  -92.00
2025.826  0.94197  -92.38
2029.630  0.94160  -92.74
2033.433  0.94115  -93.05
2037.237  0.94096  -93.28
2041.041  0.94015  -93.76
2044.845  0.94028  -94.03
2048.649  0.94283  -94.56
2052.452  0.94323  -94.65
2056.256  0.94425  -94.94
2060.060  0.94505  -95.22
2063.864  0.94579  -95.54
2067.668  0.94584  -96.00
2071.471  0.94549  -96.11
2075.275  0.94698  -96.46
2079.079  0.94542  -96.79
2082.883  0.94846  -97.10
2086.687  0.94896  -97.45
2090.490  0.95012  -97.86
2094.294  0.95239  -98.32
2098.098  0.95476  -98.56
2101.902  0.95368  -99.01
2105.706  0.95145  -99.23
2109.510  0.95331  -99.47
2113.313  0.95332  -99.83
2117.117  0.95415 -100.20
2120.921  0.95744 -100.69
2124.725  0.95447 -100.81
2128.529  0.95399 -101.22
2132.332  0.95553 -101.65
2136.136  0.95564 -102.04
2139.940  0.95267 -102.21
2143.744  0.95213 -102.59
2147.548  0.95128 -102.69
2151.351  0.95003 -103.13
2155.155  0.95014 -103.54
2158.959  0.94860 -103.74
2162.763  0.95122 -104.05
2166.567  0.95092 -104.31
2170.370  0.94974 -104.55
2174.174  0.95058 -104.83
2177.978  0.95072 -105.23
2181.782  0.95058 -105.38
2185.586  0.95426 -105.87
2189.389  0.94922 -106.05
2193.193  0.94806 -106.24
2196.997  0.94921 -106.42
2200.801  0.94771 -106.86
2204.605  0.94821 -107.18
2208.408  0.95061 -107.56
2212.212  0.95234 -107.50
2216.016  0.95115 -108.04
2219.820  0.94918 -108.33
2223.624  0.95096 -108.29
2227.427  0.94891 -109.00
2231.231  0.95039 -109.22
2235.035  0.94904 -109.27
2238.839  0.94730 -109.78
2242.643  0.94726 -109.94
2246.446  0.95033 -109.94
2250.250  0.94978 -110.66
2254.054  0.94779 -111.03
2257.858  0.94777 -111.16
2261.662  0.94588 -111.13
2265.465  0.94992 -111.40
2269.269  0.94767 -112.13
2273.073  0.95265 -112.32
2276.877  0.94940 -112.48
2280.681  0.94908 -113.05
2284.484  0.95176 -113.42
2288.288  0.95046 -113.50
2292.092  0.95066 -114.21
2295.896  0.95382 -114.09
2299.700  0.95002 -114.71
2303.504  0.95146 -115.10
2307.307  0.95238 -115.41
2311.111  0.95172 -115.80
2314.915  0.95122 -116.03
2318.719  0.95249 -116.71
2322.523  0.95012 -116.29
2326.326  0.95054 -117.01
2330.130  0.95127 -117.14
2333.934  0.95144 -117.63
2337.738  0.94803 -117.75
2341.542  0.94991 -118.36
2345.345  0.94956 -118.52
2349.149  0.94982 -118.85
2352.953  0.95071 -119.15
2356.757  0.94959 -119.32
2360.561  0.94911 -119.82
2364.364  0.94753 -120.00
2368.168  0.94928 -120.62
2371.972  0.95312 -120.73
2375.776  0.94761 -121.45
2379.580  0.94738 -121.50
2383.383  0.94881 -121.96
2387.187  0.94982 -122.33
2390.991  0.94842 -122.40
2394.795  0.94857 -122.86
2398.599  0.94844 -123.28
2402.402  0.94804 -123.48
2406.206  0.94873 -123.91
2410.010  0.94824 -124.17
2413.814  0.94696 -124.62
2417.618  0.94858 -124.92
2421.421  0.94847 -125.39
2425.225  0.94910 -125.42
2429.029  0.95026 -125.82
2432.833  0.95132 -126.08
2436.637  0.95071 -126.44
2440.440  0.95036 -126.63
2444.244  0.94958 -126.95
2448.048  0.95100 -127.41
2451.852  0.95146 -127.55
2455.656  0.95083 -127.55
2459.459  0.95330 -128.18
2463.263  0.95307 -128.55
2467.067  0.95241 -128.64
2470.871  0.95126 -129.28
2474.675  0.95125 -129.56
2478.478  0.95165 -129.72
2482.282  0.94970 -130.07
2486.086  0.95407 -130.38
2489.890  0.94980 -130.84
2493.694  0.95313 -130.98
2497.497  0.95195 -131.38
2501.301  0.95207 -131.67
2505.105  0.95096 -131.86
2508.909  0.95114 -132.29
2512.713  0.94928 -132.60
2516.517  0.95194 -132.84
2520.320  0.95014 -133.09
2524.124  0.94801 -133.40
2527.928  0.94694 -133.62
2531.732  0.94740 -134.05
2535.536  0.94496 -134.05
2539.339  0.94411 -134.42
2543.143  0.94539 -134.91
2546.947  0.94273 -135.02
2550.751  0.94222 -135.02
2554.555  0.94315 -135.33
2558.358  0.94258 -135.49
2562.162  0.94346 -135.52
2565.966  0.94454 -135.56
2569.770  0.94815 -135.82
2573.574  0.95007 -135.99
2577.377  0.95303 -136.36
2581.181  0.95460 -136.54
2584.985  0.95770 -137.08
2588.789  0.95796 -137.08
2592.593  0.96135 -137.58
2596.396  0.96383 -137.86
2600.200  0.96516 -138.50
2604.004  0.96442 -138.80
2607.808  0.96385 -139.10
2611.612  0.96340 -139.53
2615.415  0.96268 -139.82
2619.219  0.96243 -140.13
2623.023  0.96040 -140.43
2626.827  0.95717 -140.60
2630.631  0.95560 -141.26
2634.434  0.95371 -141.51
2638.238  0.95199 -141.71
2642.042  0.95093 -141.81
2645.846  0.95181 -142.00
2649.650  0.95140 -142.18
2653.453  0.94841 -142.85
2657.257  0.95118 -142.55
2661.061  0.95007 -143.40
2664.865  0.94908 -143.45
2668.669  0.94959 -143.58
2672.472  0.94770 -144.01
2676.276  0.94652 -144.00
2680.080  0.94574 -144.15
2683.884  0.94574 -144.50
2687.688  0.94644 -144.95
2691.491  0.94657 -145.41
2695.295  0.94603 -145.33
2699.099  0.94820 -145.67
2702.903  0.94648 -145.84
2706.707  0.94593 -145.77
2710.511  0.94737 -146.28
2714.314  0.94428 -146.92
2718.118  0.94322 -146.72
2721.922  0.94197 -147.18
2725.726  0.94148 -147.50
2729.530  0.94187 -147.75
2733.333  0.93894 -147.81
2737.137  0.94098 -148.11
2740.941  0.94089 -148.74
2744.745  0.94419 -148.66
2748.549  0.93821 -149.16
2752.352  0.93767 -149.33
2756.156  0.93628 -149.49
2759.960  0.93785 -149.89
2763.764  0.93893 -149.86
2767.568  0.93773 -150.54
2771.371  0.93477 -150.59
2775.175  0.93535 -151.15
2778.979  0.93666 -151.32
2782.783  0.93667 -151.70
2786.587  0.93542 -151.88
2790.390  0.93760 -152.24
2794.194  0.93504 -152.71
2797.998  0.93486 -152.90
2801.802  0.93417 -153.63
2805.606  0.93350 -154.05
2809.409  0.93393 -154.19
2813.213  0.93430 -154.94
2817.017  0.93359 -155.02
2820.821  0.93125 -155.45
2824.625  0.93023 -155.76
2828.428  0.93029 -156.44
2832.232  0.92984 -156.81
2836.036  0.92769 -157.13
2839.840  0.92771 -157.46
2843.644  0.92564 -157.81
2847.447  0.92511 -158.26
2851.251  0.92436 -159.00
2855.055  0.92183 -159.64
2858.859  0.92343 -159.82
2862.663  0.92145 -160.31
2866.466  0.92135 -160.25
2870.270  0.91993 -161.02
2874.074  0.91986 -161.58
2877.878  0.91831 -161.93
2881.682  0.91732 -162.18
2885.485  0.91639 -162.97
2889.289  0.91485 -163.36
2893.093  0.91603 -163.84
2896.897  0.91450 -164.29
2900.701  0.91219 -164.77
2904.505  0.91163 -165.06
2908.308  0.91060 -165.88
2912.112  0.90859 -166.35
2915.916  0.90764 -166.78
2919.720  0.90574 -167.06
2923.524  0.90570 -167.57
2927.327  0.90428 -168.15
2931.131  0.90218 -168.79
2934.935  0.90156 -169.45
2938.739  0.90155 -170.15
2942.543  0.89952 -170.69
2946.346  0.90001 -171.22
2950.150  0.89674 -171.88
2953.954  0.89393 -172.16
2957.758  0.89455 -172.97
2961.562  0.89393 -173.48
2965.365  0.89071 -174.07
2969.169  0.89097 -174.74
2972.973  0.88823 -175.30
2976.777  0.88816 -176.18
2980.581  0.88526 -176.89
2984.384  0.88648 -177.41
2988.188  0.88360 -178.07
2991.992  0.88034 -178.68
2995.796  0.87773 -179.31
2999.600  0.88004  179.74
3003.403  0.87502  179.20
3007.207  0.87460  178.59
3011.011  0.87355  177.82
3014.815  0.87149  177.16
3018.619  0.87127  176.50
3022.422  0.86857  175.61
3026.226  0.86740  174.89
3030.030  0.86489  174.11
3033.834  0.86210  173.48
3037.638  0.86144  172.58
3041.441  0.85992  171.76
3045.245  0.86000  171.18
3049.049  0.85532  169.90
3052.853  0.85328  169.03
3056.657  0.84732  168.29
3060.460  0.84606  167.29
3064.264  0.83961  166.91
3068.068  0.83550  165.88
3071.872  0.82960  165.10
3075.676  0.82619  164.60
3079.479  0.82451  163.63
3083.283  0.82205  163.00
3087.087  0.81964  162.46
3090.891  0.81901  161.69
3094.695  0.81907  160.76
3098.498  0.82006  159.63
3102.302  0.81558  158.78
3106.106  0.81812  158.07
3109.910  0.81608  157.03
3113.714  0.81355  155.97
