# MHz S MA R 50
!   freq        S11       
 200.000  0.98233  -58.29
 203.804  0.98222  -59.34
 207.608  0.98164  -60.32
 211.411  0.98290  -61.16
 215.215  0.98140  -62.25
 219.019  0.98230  -63.05
 222.823  0.98145  -64.08
 226.627  0.98127  -65.05
 230.430  0.98053  -65.99
 234.234  0.98021  -66.92
 238.038  0.97871  -67.86
 241.842  0.98028  -68.84
 245.646  0.97926  -69.77
 249.449  0.97891  -70.79
 253.253  0.97834  -71.72
 257.057  0.97882  -72.61
 260.861  0.97730  -73.57
 264.665  0.97734  -74.40
 268.468  0.97678  -75.37
 272.272  0.97507  -76.20
 276.076  0.97716  -77.18
 279.880  0.97618  -78.08
 283.684  0.97567  -79.00
 287.487  0.97687  -79.83
 291.291  0.97586  -80.64
 295.095  0.97505  -81.61
 298.899  0.97666  -82.47
 302.703  0.97597  -83.15
 306.507  0.97528  -84.24
 310.310  0.97542  -84.98
 314.114  0.97488  -85.83
 317.918  0.97662  -86.68
 321.722  0.97496  -87.61
 325.526  0.97474  -88.44
 329.329  0.97528  -89.17
 333.133  0.97391  -90.08
 336.937  0.97402  -90.90
 340.741  0.97349  -91.62
 344.545  0.97360  -92.59
 348.348  0.97384  -93.32
 352.152  0.97379  -94.15
 355.956  0.97338  -94.88
 359.760  0.97242  -95.70
 363.564  0.97403  -96.58
 367.367  0.97386  -97.29
 371.171  0.97247  -98.07
 374.975  0.97361  -98.85
 378.779  0.97384  -99.64
 382.583  0.97297 -100.44
 386.386  0.97199 -101.16
 390.190  0.97261 -101.87
 393.994  0.97337 -102.63
 397.798  0.97422 -103.47
 401.602  0.97394 -104.22
 405.405  0.97274 -104.91
 409.209  0.97359 -105.73
 413.013  0.97215 -106.43
 416.817  0.97369 -107.10
 420.621  0.97490 -107.91
 424.424  0.97445 -108.69
 428.228  0.97365 -109.43
 432.032  0.97411 -110.09
 435.836  0.97467 -110.90
 439.640  0.97447 -111.57
 443.443  0.97515 -112.25
 447.247  0.97631 -112.91
 451.051  0.97519 -113.68
 454.855  0.97578 -114.40
 458.659  0.97546 -115.01
 462.462  0.97368 -115.62
 466.266  0.97191 -116.26
 470.070  0.97275 -116.92
 473.874  0.97305 -117.59
 477.678  0.97269 -118.29
 481.481  0.97284 -118.98
 485.285  0.97276 -119.72
 489.089  0.97348 -120.34
 492.893  0.97452 -121.06
 496.697  0.97438 -121.69
 500.501  0.97543 -122.45
 504.304  0.97638 -123.12
 508.108  0.97547 -123.70
 511.912  0.97606 -124.47
 515.716  0.97550 -124.94
 519.520  0.97561 -125.69
 523.323  0.97517 -126.28
 527.127  0.97426 -126.98
 530.931  0.97589 -127.54
 534.735  0.97489 -128.16
 538.539  0.97641 -128.90
 542.342  0.97502 -129.51
 546.146  0.97639 -130.25
 549.950  0.97602 -130.77
 553.754  0.97456 -131.26
 557.558  0.97528 -132.03
 561.361  0.97513 -132.55
 565.165  0.97417 -133.22
 568.969  0.97458 -133.89
 572.773  0.97408 -134.39
 576.577  0.97398 -135.03
 580.380  0.97311 -135.82
 584.184  0.97477 -136.36
 587.988  0.97407 -136.99
 591.792  0.97245 -137.70
 595.596  0.97408 -138.21
 599.399  0.97333 -138.77
 603.203  0.97388 -139.51
 607.007  0.97325 -140.13
 610.811  0.97317 -140.68
 614.615  0.97284 -141.33
 618.418  0.97233 -141.91
 622.222  0.97165 -142.46
 626.026  0.97226 -143.16
 629.830  0.97297 -143.80
 633.634  0.97232 -144.36
 637.437  0.97115 -145.07
 641.241  0.97087 -145.54
 645.045  0.97171 -146.24
 648.849  0.97109 -146.77
 652.653  0.97098 -147.36
 656.456  0.97170 -148.03
 660.260  0.96943 -148.62
 664.064  0.96996 -149.15
 667.868  0.96986 -149.71
 671.672  0.96904 -150.35
 675.475  0.96866 -150.98
 679.279  0.96891 -151.62
 683.083  0.96966 -152.12
 686.887  0.97052 -152.87
 690.691  0.96826 -153.56
 694.494  0.96790 -153.99
 698.298  0.96947 -154.70
 702.102  0.96772 -155.25
 705.906  0.97050 -155.82
 709.710  0.96852 -156.59
 713.514  0.96775 -157.00
 717.317  0.96786 -157.56
 721.121  0.96808 -158.39
 724.925  0.96790 -158.97
 728.729  0.96844 -159.56
 732.533  0.96637 -160.06
 736.336  0.96836 -160.81
 740.140  0.96655 -161.30
 743.944  0.96838 -162.03
 747.748  0.96759 -162.72
 751.552  0.96482 -163.13
 755.355  0.96591 -163.67
 759.159  0.96575 -164.55
 762.963  0.96581 -165.04
 766.767  0.96477 -165.57
 770.571  0.96638 -166.33
 774.374  0.96280 -166.79
 778.178  0.96580 -167.59
 781.982  0.96493 -168.06
 785.786  0.96559 -168.84
 789.590  0.96399 -169.36
 793.393  0.96398 -169.99
 797.197  0.96372 -170.74
 801.001  0.96292 -171.24
 804.805  0.96381 -171.88
 808.609  0.96324 -172.63
 812.412  0.96280 -173.17
 816.216  0.96220 -173.84
 820.020  0.96253 -174.48
 823.824  0.96255 -175.12
 827.628  0.96090 -175.67
 831.431  0.96147 -176.27
 835.235  0.96258 -176.91
 839.039  0.96212 -177.64
 842.843  0.96279 -178.33
 846.647  0.96214 -178.96
 850.450  0.96207 -179.54
 854.254  0.96189  179.62
 858.058  0.96060  178.96
 861.862  0.96209  178.51
 865.666  0.96026  177.83
 869.469  0.96114  177.20
 873.273  0.95913  176.51
 877.077  0.96103  175.78
 880.881  0.95988  175.12
 884.685  0.95943  174.50
 888.488  0.95988  173.74
 892.292  0.95993  173.10
 896.096  0.96031  172.35
 899.900  0.96030  171.76
 903.704  0.95932  171.02
 907.508  0.96099  170.33
 911.311  0.95921  169.66
 915.115  0.95844  168.90
 918.919  0.95854  168.32
 922.723  0.95848  167.62
 926.527  0.95807  166.79
 930.330  0.95843  166.17
 934.134  0.95776  165.38
 937.938  0.95627  164.70
 941.742  0.95669  164.01
 945.546  0.95514  163.26
 949.349  0.95638  162.46
 953.153  0.95687  161.82
 956.957  0.95478  161.12
 960.761  0.95649  160.40
 964.565  0.95483  159.58
 968.368  0.95515  158.78
 972.172  0.95499  157.99
 975.976  0.95335  157.23
 979.780  0.95320  156.50
 983.584  0.95373  155.65
 987.387  0.95195  154.89
 991.191  0.95316  154.10
 994.995  0.95250  153.33
 998.799  0.95322  152.58
1002.603  0.95190  151.72
1006.406  0.95055  150.95
1010.210  0.94917  150.18
1014.014  0.94858  149.40
1017.818  0.94973  148.58
1021.622  0.94801  147.77
1025.425  0.94831  146.96
1029.229  0.94682  146.17
1033.033  0.94857  145.10
1036.837  0.94736  144.34
1040.641  0.94639  143.49
1044.444  0.94537  142.58
1048.248  0.94452  141.71
1052.052  0.94656  140.77
1055.856  0.94414  140.06
1059.660  0.94237  138.97
1063.463  0.94053  138.07
1067.267  0.94273  137.18
1071.071  0.94050  136.41
1074.875  0.94080  135.36
1078.679  0.94086  134.45
1082.482  0.93931  133.63
1086.286  0.93716  132.61
1090.090  0.93860  131.59
1093.894  0.93540  130.59
1097.698  0.93491  129.73
1101.502  0.93541  128.58
1105.305  0.93342  127.73
1109.109  0.93383  126.62
1112.913  0.93120  125.95
1116.717  0.93143  124.78
1120.521  0.93041  123.82
1124.324  0.92879  122.83
1128.128  0.92984  121.69
1131.932  0.92933  120.70
1135.736  0.92636  119.64
1139.540  0.92579  118.44
1143.343  0.92258  117.38
1147.147  0.92446  116.47
1150.951  0.92454  115.36
1154.755  0.92418  114.12
1158.559  0.92249  113.26
1162.362  0.92383  111.99
1166.166  0.92352  111.01
1169.970  0.91947  109.80
1173.774  0.91845  108.74
1177.578  0.92059  107.38
1181.381  0.91907  106.36
1185.185  0.91674  105.23
1188.989  0.91961  103.88
1192.793  0.91843  102.75
1196.597  0.91780  101.83
1200.400  0.91488  100.40
1204.204  0.91494   99.38
1208.008  0.91316   98.32
1211.812  0.91653   97.08
1215.616  0.91283   96.03
1219.419  0.91440   94.40
1223.223  0.91039   93.55
1227.027  0.91014   92.44
1230.831  0.91144   90.88
1234.635  0.91318   89.48
1238.438  0.90958   88.35
1242.242  0.90785   87.40
1246.046  0.91028   86.12
1249.850  0.90865   84.89
1253.654  0.90776   83.46
1257.457  0.90572   82.30
1261.261  0.90355   80.88
1265.065  0.90579   79.52
1268.869  0.90335   78.33
1272.673  0.90446   77.26
1276.476  0.90253   75.85
1280.280  0.90390   74.79
1284.084  0.90743   73.27
1287.888  0.90480   72.06
1291.692  0.90375   70.67
1295.495  0.90196   69.39
1299.299  0.90220   68.06
1303.103  0.90574   66.88
1306.907  0.90313   65.60
1310.711  0.90342   64.42
1314.515  0.89865   63.02
1318.318  0.90206   61.77
1322.122  0.90407   60.51
1325.926  0.90116   59.28
1329.730  0.90117   57.89
1333.534  0.89810   56.50
1337.337  0.90077   55.36
1341.141  0.89924   53.90
1344.945  0.89947   52.59
1348.749  0.89738   51.33
1352.553  0.89435   49.92
1356.356  0.89666   48.68
1360.160  0.89744   47.31
1363.964  0.89508   45.95
1367.768  0.89448   44.65
1371.572  0.89345   43.31
1375.375  0.89180   42.03
1379.179  0.89093   40.74
1382.983  0.89189   39.33
1386.787  0.89093   38.00
1390.591  0.89099   36.78
1394.394  0.89051   35.35
1398.198  0.88861   34.16
1402.002  0.88925   32.84
1405.806  0.88909   31.50
1409.610  0.88832   30.20
1413.413  0.88837   28.90
1417.217  0.88799   27.52
1421.021  0.88824   26.33
1424.825  0.88871   25.00
1428.629  0.88824   23.65
1432.432  0.88802   22.50
1436.236  0.88835   20.98
1440.040  0.88845   19.69
1443.844  0.88748   18.44
1447.648  0.88728   17.13
1451.451  0.88643   15.96
1455.255  0.88766   14.69
1459.059  0.88633   13.33
1462.863  0.88662   12.03
1466.667  0.88747   10.91
1470.470  0.88664    9.60
1474.274  0.88694    8.38
1478.078  0.88709    7.13
1481.882  0.88757    5.96
1485.686  0.88670    4.77
1489.489  0.88865    3.51
1493.293  0.88769    2.31
1497.097  0.88841    1.14
1500.901  0.88824   -0.12
1504.705  0.88869   -1.17
1508.509  0.88828   -2.42
1512.312  0.88937   -3.54
1516.116  0.88786   -4.73
1519.920  0.88996   -5.99
1523.724  0.88888   -7.08
1527.528  0.88901   -8.17
1531.331  0.88961   -9.28
1535.135  0.88917  -10.33
1538.939  0.88971  -11.58
1542.743  0.89103  -12.56
1546.547  0.89009  -13.70
1550.350  0.89079  -14.80
1554.154  0.89079  -15.85
1557.958  0.89069  -17.04
1561.762  0.89175  -18.00
1565.566  0.89089  -19.08
1569.369  0.89264  -20.23
1573.173  0.89235  -21.05
1576.977  0.89339  -22.20
1580.781  0.89271  -23.38
1584.585  0.89413  -24.29
1588.388  0.89605  -25.50
1592.192  0.89527  -26.28
1595.996  0.89655  -27.16
1599.800  0.89824  -28.25
1603.604  0.89757  -29.25
1607.407  0.89930  -30.38
1611.211  0.89970  -31.17
1615.015  0.89930  -32.09
1618.819  0.90018  -33.03
1622.623  0.89913  -33.93
1626.426  0.90056  -34.99
1630.230  0.90111  -35.79
1634.034  0.90256  -36.61
1637.838  0.90257  -37.76
1641.642  0.90261  -38.51
1645.445  0.90524  -39.32
1649.249  0.90551  -40.44
1653.053  0.90490  -41.22
1656.857  0.90658  -42.07
1660.661  0.90674  -43.01
1664.464  0.90558  -43.57
1668.268  0.90746  -44.67
1672.072  0.90808  -45.52
1675.876  0.90764  -46.46
1679.680  0.90869  -47.29
1683.483  0.90973  -47.98
1687.287  0.91074  -48.75
1691.091  0.91071  -49.62
1694.895  0.91149  -50.28
1698.699  0.91169  -51.20
1702.503  0.91178  -51.94
1706.306  0.91186  -52.56
1710.110  0.91253  -53.35
1713.914  0.91394  -53.96
1717.718  0.91393  -54.94
1721.522  0.91264  -55.61
1725.325  0.91455  -56.43
1729.129  0.91301  -56.86
1732.933  0.91275  -57.67
1736.737  0.91284  -58.59
1740.541  0.91260  -59.13
1744.344  0.91426  -59.78
1748.148  0.91555  -60.67
1751.952  0.91490  -61.29
1755.756  0.91380  -61.90
1759.560  0.91738  -62.68
1763.363  0.91562  -63.17
1767.167  0.91756  -63.92
1770.971  0.91901  -64.55
1774.775  0.91919  -65.17
1778.579  0.91881  -65.75
1782.382  0.92045  -66.58
1786.186  0.92025  -66.79
1789.990  0.92261  -67.65
1793.794  0.92414  -67.95
1797.598  0.92388  -68.55
1801.401  0.92564  -69.47
1805.205  0.92750  -69.91
1809.009  0.92883  -70.43
1812.813  0.92543  -71.02
1816.617  0.92929  -71.80
1820.420  0.92754  -72.32
1824.224  0.92860  -72.86
1828.028  0.92779  -73.50
1831.832  0.92709  -74.08
1835.636  0.92667  -74.59
1839.439  0.93080  -75.34
1843.243  0.92967  -75.81
1847.047  0.93000  -76.31
1850.851  0.93027  -76.94
1854.655  0.92949  -77.36
1858.458  0.93124  -78.06
1862.262  0.93049  -78.43
1866.066  0.93121  -78.98
1869.870  0.93171  -79.70
1873.674  0.93137  -80.08
1877.477  0.93282  -80.71
1881.281  0.93390  -81.17
1885.085  0.93368  -81.56
1888.889  0.93355  -82.14
1892.693  0.93260  -82.80
1896.496  0.93598  -83.37
1900.300  0.93477  -83.58
1904.104  0.93522  -84.22
1907.908  0.93460  -84.80
1911.712  0.93552  -85.18
1915.516  0.93492  -85.70
1919.319  0.93619  -86.05
1923.123  0.93228  -86.64
1926.927  0.93635  -87.05
1930.731  0.93332  -87.61
1934.535  0.93524  -88.17
1938.338  0.93530  -88.60
1942.142  0.93407  -88.94
1945.946  0.93795  -89.52
1949.750  0.93542  -89.92
1953.554  0.93532  -90.54
1957.357  0.93671  -90.88
1961.161  0.93641  -91.44
1964.965  0.93777  -91.76
1968.769  0.93760  -92.17
1972.573  0.93559  -92.81
1976.376  0.93429  -93.33
1980.180  0.93649  -93.75
1983.984  0.93381  -94.11
1987.788  0.93479  -94.70
1991.592  0.93462  -95.11
1995.395  0.93380  -95.32
1999.199  0.93619  -95.86
2003.003  0.93300  -96.44
2006.807  0.93510  -96.77
2010.611  0.93418  -97.16
2014.414  0.93385  -97.61
2018.218  0.93111  -97.92
2022.022  0.93412  -98.64
2025.826  0.93311  -98.88
2029.630  0.92994  -99.29
2033.433  0.93150  -99.59
2037.237  0.93191 -100.14
2041.041  0.93011 -100.40
2044.845  0.93239 -100.85
2048.649  0.93228 -101.23
2052.452  0.93266 -101.59
2056.256  0.93321 -102.00
2060.060  0.93201 -102.33
2063.864  0.93417 -102.67
2067.668  0.93666 -103.20
2071.471  0.93451 -103.71
2075.275  0.93520 -103.92
2079.079  0.93869 -104.52
2082.883  0.93813 -104.90
2086.687  0.93912 -105.26
2090.490  0.94054 -105.56
2094.294  0.93982 -106.10
2098.098  0.94124 -106.53
2101.902  0.94258 -106.73
2105.706  0.94409 -107.29
2109.510  0.94388 -107.81
2113.313  0.94299 -108.09
2117.117  0.94608 -108.71
2120.921  0.94504 -108.91
2124.725  0.94433 -109.53
2128.529  0.94349 -109.78
2132.332  0.94262 -110.37
2136.136  0.94152 -110.73
2139.940  0.93803 -111.03
2143.744  0.94092 -111.18
2147.548  0.93860 -111.62
2151.351  0.94121 -112.26
2155.155  0.94121 -112.53
2158.959  0.93977 -112.76
2162.763  0.94127 -113.18
2166.567  0.93794 -113.54
2170.370  0.94149 -113.81
2174.174  0.93976 -114.14
2177.978  0.94147 -114.59
2181.782  0.93892 -115.02
2185.586  0.93974 -115.29
2189.389  0.93967 -115.65
2193.193  0.94318 -116.29
2196.997  0.94003 -116.35
2200.801  0.94015 -116.67
2204.605  0.94420 -117.17
2208.408  0.93965 -117.61
2212.212  0.94160 -117.92
2216.016  0.94032 -117.71
2219.820  0.94066 -118.36
2223.624  0.94154 -118.62
2227.427  0.94067 -119.01
2231.231  0.94157 -119.28
2235.035  0.93941 -119.66
2238.839  0.94277 -120.02
2242.643  0.94220 -120.31
2246.446  0.94060 -120.47
2250.250  0.94004 -120.71
2254.054  0.94907 -121.12
2257.858  0.94209 -121.70
2261.662  0.94107 -121.76
2265.465  0.94202 -122.26
2269.269  0.94135 -122.55
2273.073  0.94451 -122.45
2276.877  0.94321 -123.18
2280.681  0.94211 -123.43
2284.484  0.94379 -123.80
2288.288  0.94490 -124.02
2292.092  0.94632 -124.06
2295.896  0.94390 -124.81
2299.700  0.94531 -125.17
2303.504  0.94509 -125.68
2307.307  0.94687 -126.02
2311.111  0.94617 -126.06
2314.915  0.94274 -126.52
2318.719  0.94468 -126.74
2322.523  0.94679 -127.42
2326.326  0.94491 -127.58
2330.130  0.94496 -127.97
2333.934  0.94391 -128.48
2337.738  0.94598 -128.61
2341.542  0.94425 -128.92
2345.345  0.94520 -129.32
2349.149  0.94481 -129.58
2352.953  0.94419 -130.09
2356.757  0.94328 -130.30
2360.561  0.94308 -130.71
2364.364  0.94446 -131.43
2368.168  0.94388 -131.24
2371.972  0.94244 -132.00
2375.776  0.94315 -132.15
2379.580  0.94431 -132.54
2383.383  0.94210 -132.70
2387.187  0.94217 -133.08
2390.991  0.94368 -133.37
2394.795  0.94429 -133.71
2398.599  0.94142 -134.09
2402.402  0.94340 -134.26
2406.206  0.94304 -134.70
2410.010  0.94141 -135.03
2413.814  0.94356 -135.44
2417.618  0.94167 -136.00
2421.421  0.94334 -136.03
2425.225  0.94465 -136.56
2429.029  0.94272 -136.91
2432.833  0.94220 -137.04
2436.637  0.94230 -137.54
2440.440  0.94341 -137.77
2444.244  0.94444 -138.23
2448.048  0.94218 -138.42
2451.852  0.94364 -139.00
2455.656  0.94142 -139.49
2459.459  0.94248 -139.51
2463.263  0.94344 -139.79
2467.067  0.94502 -140.49
2470.871  0.94279 -140.46
2474.675  0.94060 -140.90
2478.478  0.94335 -141.18
2482.282  0.94394 -141.49
2486.086  0.94321 -142.07
2489.890  0.94337 -142.25
2493.694  0.94177 -142.58
2497.497  0.94132 -142.81
2501.301  0.94100 -143.36
2505.105  0.94169 -143.85
2508.909  0.94228 -144.11
2512.713  0.93998 -144.19
2516.517  0.94190 -144.75
2520.320  0.94131 -145.17
2524.124  0.93824 -145.59
2527.928  0.93956 -145.83
2531.732  0.93694 -146.33
2535.536  0.93597 -146.42
2539.339  0.93545 -146.89
2543.143  0.93475 -147.42
2546.947  0.93328 -147.66
2550.751  0.93338 -148.14
2554.555  0.93009 -148.16
2558.358  0.92902 -148.58
2562.162  0.93011 -148.78
2565.966  0.92735 -148.93
2569.770  0.93228 -149.45
2573.574  0.93109 -149.74
2577.377  0.93429 -149.81
2581.181  0.93746 -150.32
2584.985  0.93981 -150.56
2588.789  0.94032 -151.15
2592.593  0.94196 -151.64
2596.396  0.94433 -152.09
2600.200  0.94208 -152.52
2604.004  0.94254 -152.94
2607.808  0.93935 -153.55
2611.612  0.94185 -154.17
2615.415  0.93991 -154.92
2619.219  0.93766 -155.09
2623.023  0.93601 -155.62
2626.827  0.93327 -156.02
2630.631  0.93178 -156.50
2634.434  0.93132 -156.72
2638.238  0.92804 -156.80
2642.042  0.92812 -157.68
2645.846  0.92713 -158.10
2649.650  0.92740 -158.59
2653.453  0.93013 -158.90
2657.257  0.92858 -159.21
2661.061  0.92365 -160.01
2664.865  0.92647 -160.41
2668.669  0.92945 -160.61
2672.472  0.92626 -160.89
2676.276  0.92409 -162.14
2680.080  0.92610 -162.27
2683.884  0.92217 -162.40
2687.688  0.92216 -163.12
2691.491  0.91897 -163.33
2695.295  0.92317 -164.07
2699.099  0.92168 -164.07
2702.903  0.92067 -164.77
2706.707  0.91691 -165.09
2710.511  0.92176 -165.64
2714.314  0.91787 -166.13
2718.118  0.91651 -166.69
2721.922  0.91613 -167.32
2725.726  0.91749 -167.47
2729.530  0.91659 -168.09
2733.333  0.92145 -168.52
2737.137  0.91208 -169.06
2740.941  0.91378 -169.75
2744.745  0.91319 -170.38
2748.549  0.91257 -170.83
2752.352  0.91202 -171.29
2756.156  0.91143 -171.99
2759.960  0.91298 -172.24
2763.764  0.90981 -173.02
2767.568  0.90806 -173.39
2771.371  0.90570 -173.92
2775.175  0.90828 -174.46
2778.979  0.90662 -175.32
2782.783  0.90560 -175.88
2786.587  0.90456 -176.28
2790.390  0.90593 -176.80
2794.194  0.90332 -177.56
2797.998  0.90411 -178.12
2801.802  0.90032 -178.90
2805.606  0.90013 -179.46
2809.409  0.89945  179.97
2813.213  0.89834  179.43
2817.017  0.89686  178.36
2820.821  0.89800  178.05
2824.625  0.89894  177.10
2828.428  0.89497  176.56
2832.232  0.89662  175.94
2836.036  0.89352  175.40
2839.840  0.89065  174.55
2843.644  0.88917  174.25
2847.447  0.89114  173.38
2851.251  0.88904  172.77
2855.055  0.88664  171.93
2858.859  0.88501  171.27
2862.663  0.88410  170.61
2866.466  0.88419  169.79
2870.270  0.88286  168.68
2874.074  0.88126  167.58
2877.878  0.87930  167.44
2881.682  0.87659  166.86
2885.485  0.87555  165.96
2889.289  0.87333  165.35
2893.093  0.87353  164.49
2896.897  0.87111  163.76
2900.701  0.86781  162.93
2904.505  0.86701  162.04
2908.308  0.86512  161.34
2912.112  0.86347  160.26
2915.916  0.86331  159.65
2919.720  0.86059  158.79
2923.524  0.85925  157.95
2927.327  0.85897  156.95
2931.131  0.85795  156.05
2934.935  0.85448  155.46
2938.739  0.85422  154.25
2942.543  0.85162  153.14
2946.346  0.84921  152.30
2950.150  0.84817  151.63
2953.954  0.84607  150.47
2957.758  0.84486  149.50
2961.562  0.84258  148.49
2965.365  0.83927  147.47
2969.169  0.83747  146.58
2972.973  0.83426  145.43
2976.777  0.83291  144.58
2980.581  0.83337  143.02
2984.384  0.83157  142.08
2988.188  0.82775  141.02
2991.992  0.82446  139.83
2995.796  0.82201  138.87
2999.600  0.82062  137.42
3003.403  0.81842  136.29
3007.207  0.81544  134.91
3011.011  0.81234  133.59
3014.815  0.80880  132.35
3018.619  0.80774  131.09
3022.422  0.80316  129.65
3026.226  0.79740  128.17
3030.030  0.79455  127.00
3033.834  0.78846  125.58
3037.638  0.78384  124.17
3041.441  0.77871  123.05
3045.245  0.77554  121.63
3049.049  0.77128  120.19
3052.853  0.76480  118.80
3056.657  0.76121  117.73
3060.460  0.75581  116.02
3064.264  0.75346  114.96
3068.068  0.74939  113.64
3071.872  0.74463  112.09
3075.676  0.74256  110.90
3079.479  0.73888  109.66
3083.283  0.73649  108.18
3087.087  0.73262  106.55
3090.891  0.73165  105.54
3094.695  0.73164  103.84
3098.498  0.72984  102.23
3102.302  0.73074  100.88
3106.106  0.73220   99.05
3109.910  0.73153   97.30
3113.714  0.72968   95.73
