# MHz S MA R 50
!   freq        S11       
1000.000000  0.29637   48.76
1003.003003  0.28321   41.44
1006.006006  0.26813   34.44
1009.009009  0.25153   28.03
1012.012012  0.23573   22.03
1015.015015  0.22033   16.80
1018.018018  0.20646   12.10
1021.021021  0.19283    7.65
1024.024024  0.17944    4.00
1027.027027  0.16721    0.33
1030.030030  0.15518   -2.53
1033.033033  0.14484   -5.24
1036.036036  0.13383   -7.37
1039.039039  0.12483   -9.20
1042.042042  0.11820  -11.19
1045.045045  0.10995  -12.22
1048.048048  0.10266  -12.71
1051.051051  0.09766  -12.31
1054.054054  0.09154  -11.80
1057.057057  0.08648  -10.04
1060.060060  0.08241   -8.47
1063.063063  0.07930   -5.80
1066.066066  0.07660   -3.31
1069.069069  0.07565    0.00
1072.072072  0.07559    3.11
1075.075075  0.07629    6.08
1078.078078  0.07784    8.74
1081.081081  0.08086   11.61
1084.084084  0.08373   13.50
1087.087087  0.08790   15.49
1090.090090  0.09221   17.12
1093.093093  0.09755   18.23
1096.096096  0.10237   18.80
1099.099099  0.10752   18.93
1102.102102  0.11366   18.95
1105.105105  0.11931   19.00
1108.108108  0.12498   18.27
1111.111111  0.13111   17.39
1114.114114  0.13756   16.94
1117.117117  0.14488   15.62
1120.120120  0.15150   14.34
1123.123123  0.15806   13.40
1126.126126  0.16387   12.29
1129.129129  0.17059   10.69
1132.132132  0.17570    9.53
1135.135135  0.18270    8.07
1138.138138  0.18776    6.37
1141.141141  0.19454    5.29
1144.144144  0.20040    3.53
1147.147147  0.20644    1.64
1150.150150  0.21189    0.39
1153.153153  0.21743   -1.56
1156.156156  0.22370   -2.94
1159.159159  0.22755   -4.56
1162.162162  0.23343   -6.25
1165.165165  0.23827   -7.90
1168.168168  0.24367   -9.42
1171.171171  0.24750  -11.36
1174.174174  0.25156  -12.70
1177.177177  0.25537  -14.62
1180.180180  0.25998  -16.31
1183.183183  0.26344  -17.74
1186.186186  0.26744  -19.30
1189.189189  0.27058  -21.23
1192.192192  0.27375  -22.76
1195.195195  0.27764  -24.31
1198.198198  0.28030  -26.10
1201.201201  0.28277  -27.33
1204.204204  0.28420  -29.08
1207.207207  0.28745  -30.70
1210.210210  0.28833  -32.03
1213.213213  0.29162  -34.03
1216.216216  0.29259  -35.28
1219.219219  0.29415  -36.96
1222.222222  0.29437  -38.31
1225.225225  0.29553  -39.75
1228.228228  0.29642  -41.16
1231.231231  0.29658  -42.69
1234.234234  0.29648  -44.10
1237.237237  0.29598  -45.31
1240.240240  0.29637  -46.88
1243.243243  0.29620  -48.08
1246.246246  0.29479  -49.42
1249.249249  0.29282  -50.78
1252.252252  0.29158  -52.21
1255.255255  0.29108  -53.19
1258.258258  0.28840  -54.58
1261.261261  0.28736  -55.83
1264.264264  0.28395  -57.12
1267.267267  0.28016  -58.15
1270.270270  0.27816  -59.31
1273.273273  0.27545  -60.19
1276.276276  0.27128  -61.10
1279.279279  0.26747  -62.00
1282.282282  0.26434  -62.90
1285.285285  0.25977  -63.67
1288.288288  0.25634  -64.46
1291.291291  0.25088  -65.37
1294.294294  0.24669  -65.82
1297.297297  0.24172  -66.40
1300.300300  0.23681  -66.78
1303.303303  0.23120  -67.18
1306.306306  0.22530  -67.78
1309.309309  0.22084  -67.94
1312.312312  0.21498  -68.06
1315.315315  0.20916  -67.67
1318.318318  0.20455  -67.43
1321.321321  0.19921  -66.99
1324.324324  0.19485  -66.33
1327.327327  0.19035  -65.70
1330.330330  0.18710  -64.48
1333.333333  0.18226  -63.40
1336.336336  0.18009  -62.16
1339.339339  0.17611  -60.78
1342.342342  0.17373  -58.93
1345.345345  0.17195  -57.03
1348.348348  0.17004  -54.94
1351.351351  0.16994  -52.99
1354.354354  0.16983  -50.53
1357.357357  0.17108  -48.21
1360.360360  0.17340  -46.35
1363.363363  0.17614  -44.09
1366.366366  0.17808  -41.78
1369.369369  0.18291  -40.04
1372.372372  0.18823  -38.25
1375.375375  0.19224  -36.60
1378.378378  0.19925  -35.11
1381.381381  0.20514  -34.04
1384.384384  0.21216  -33.10
1387.387387  0.21943  -32.18
1390.390390  0.22652  -31.84
1393.393393  0.23489  -31.50
1396.396396  0.24257  -31.10
1399.399399  0.25110  -31.04
1402.402402  0.26001  -30.94
1405.405405  0.26845  -31.03
1408.408408  0.27737  -31.31
1411.411411  0.28655  -31.88
1414.414414  0.29653  -32.52
1417.417417  0.30494  -33.07
1420.420420  0.31396  -33.59
1423.423423  0.32298  -33.99
1426.426426  0.33107  -34.95
1429.429429  0.33909  -35.48
1432.432432  0.34616  -36.14
1435.435435  0.35397  -36.95
1438.438438  0.36116  -37.77
1441.441441  0.36987  -38.66
1444.444444  0.37672  -39.47
1447.447447  0.38443  -40.67
1450.450450  0.39058  -41.64
1453.453453  0.39847  -42.50
1456.456456  0.40396  -43.34
1459.459459  0.41042  -44.51
1462.462462  0.41588  -45.31
1465.465465  0.42163  -46.39
1468.468468  0.42773  -47.44
1471.471471  0.43246  -48.60
1474.474474  0.43865  -49.49
1477.477477  0.44356  -50.59
1480.480480  0.44724  -51.62
1483.483483  0.45153  -52.64
1486.486486  0.45497  -53.46
1489.489489  0.45918  -54.54
1492.492492  0.46214  -55.74
1495.495495  0.46406  -56.65
1498.498498  0.46748  -57.79
1501.501502  0.46980  -58.63
1504.504505  0.47238  -59.72
1507.507508  0.47377  -60.70
1510.510511  0.47607  -61.59
1513.513514  0.47841  -62.49
1516.516517  0.47854  -63.59
1519.519520  0.48024  -64.52
1522.522523  0.47912  -65.53
1525.525526  0.48121  -66.44
1528.528529  0.48032  -67.26
1531.531532  0.47976  -68.40
1534.534535  0.48115  -69.37
1537.537538  0.47910  -70.20
1540.540541  0.47938  -71.19
1543.543544  0.47820  -71.96
1546.546547  0.47731  -72.91
1549.549550  0.47671  -73.72
1552.552553  0.47213  -74.66
1555.555556  0.47108  -75.16
1558.558559  0.46747  -75.92
1561.561562  0.46563  -76.44
1564.564565  0.46190  -77.25
1567.567568  0.46074  -77.97
1570.570571  0.45653  -78.66
1573.573574  0.45272  -79.06
1576.576577  0.44806  -79.57
1579.579580  0.44578  -80.17
1582.582583  0.44125  -80.66
1585.585586  0.43659  -81.18
1588.588589  0.43276  -81.33
1591.591592  0.42740  -81.73
1594.594595  0.42241  -82.15
1597.597598  0.41821  -82.20
1600.600601  0.41453  -82.44
1603.603604  0.40841  -82.44
1606.606607  0.40355  -82.38
1609.609610  0.39838  -82.26
1612.612613  0.39483  -82.28
1615.615616  0.38958  -81.76
1618.618619  0.38633  -81.54
1621.621622  0.38246  -81.09
1624.624625  0.37866  -80.86
1627.627628  0.37645  -80.34
1630.630631  0.37230  -79.50
1633.633634  0.37010  -79.10
1636.636637  0.36853  -78.12
1639.639640  0.36675  -77.65
1642.642643  0.36698  -76.67
1645.645646  0.36638  -75.98
1648.648649  0.36681  -75.21
1651.651652  0.36797  -74.22
1654.654655  0.36902  -73.43
1657.657658  0.37133  -72.68
1660.660661  0.37441  -71.70
1663.663664  0.37807  -71.02
1666.666667  0.38254  -70.33
1669.669670  0.38760  -69.77
1672.672673  0.39234  -69.25
1675.675676  0.39830  -68.83
1678.678679  0.40400  -68.38
1681.681682  0.41117  -67.98
1684.684685  0.41851  -67.78
1687.687688  0.42371  -67.56
1690.690691  0.43260  -67.41
1693.693694  0.43982  -67.25
1696.696697  0.44740  -67.31
1699.699700  0.45436  -67.32
1702.702703  0.46429  -67.66
1705.705706  0.47133  -67.59
1708.708709  0.47997  -67.94
1711.711712  0.48740  -68.15
1714.714715  0.49512  -68.27
1717.717718  0.50328  -68.94
1720.720721  0.51021  -69.34
1723.723724  0.51866  -69.60
1726.726727  0.52502  -70.09
1729.729730  0.53255  -70.71
1732.732733  0.53918  -71.15
1735.735736  0.54712  -71.80
1738.738739  0.55306  -72.34
1741.741742  0.55986  -72.83
1744.744745  0.56535  -73.59
1747.747748  0.57095  -74.19
1750.750751  0.57757  -75.04
1753.753754  0.58114  -75.58
1756.756757  0.58700  -76.30
1759.759760  0.59116  -76.84
1762.762763  0.59604  -77.48
1765.765766  0.59980  -78.17
1768.768769  0.60541  -79.02
1771.771772  0.60947  -79.73
1774.774775  0.61278  -80.49
1777.777778  0.61666  -81.07
1780.780781  0.61881  -81.70
1783.783784  0.62144  -82.39
1786.786787  0.62512  -82.96
1789.789790  0.62683  -83.62
1792.792793  0.63035  -84.63
1795.795796  0.62998  -85.15
1798.798799  0.63389  -85.74
1801.801802  0.63257  -86.34
1804.804805  0.63601  -87.06
1807.807808  0.63704  -87.58
1810.810811  0.63853  -88.41
1813.813814  0.63795  -89.07
1816.816817  0.63804  -89.77
1819.819820  0.63927  -90.43
1822.822823  0.63812  -91.02
1825.825826  0.63914  -91.63
1828.828829  0.63851  -92.39
1831.831832  0.63726  -92.94
1834.834835  0.63814  -93.74
1837.837838  0.63498  -94.23
1840.840841  0.63518  -94.98
1843.843844  0.63318  -95.39
1846.846847  0.63181  -96.34
1849.849850  0.62945  -96.66
1852.852853  0.62731  -97.32
1855.855856  0.62503  -98.00
1858.858859  0.62338  -98.34
1861.861862  0.62031  -98.98
1864.864865  0.61684  -99.46
1867.867868  0.61493  -99.86
1870.870871  0.61047 -100.36
1873.873874  0.60764 -100.77
1876.876877  0.60402 -101.11
1879.879880  0.60136 -101.57
1882.882883  0.59693 -101.89
1885.885886  0.59293 -102.03
1888.888889  0.58989 -102.33
1891.891892  0.58623 -102.72
1894.894895  0.58265 -102.87
1897.897898  0.57819 -103.08
1900.900901  0.57375 -103.20
1903.903904  0.57097 -103.24
1906.906907  0.56762 -103.38
1909.909910  0.56372 -103.30
1912.912913  0.56022 -103.28
1915.915916  0.55666 -103.21
1918.918919  0.55282 -103.17
1921.921922  0.55176 -102.96
1924.924925  0.54762 -102.80
1927.927928  0.54590 -102.55
1930.930931  0.54390 -102.16
1933.933934  0.54258 -101.93
1936.936937  0.54246 -101.68
1939.939940  0.54053 -101.31
1942.942943  0.54135 -100.95
1945.945946  0.54270 -100.52
1948.948949  0.54326 -100.49
1951.951952  0.54461  -99.92
1954.954955  0.54665  -99.67
1957.957958  0.54987  -99.33
1960.960961  0.55327  -99.07
1963.963964  0.55699  -98.82
1966.966967  0.56087  -98.68
1969.969970  0.56626  -98.59
1972.972973  0.57017  -98.31
1975.975976  0.57462  -98.34
1978.978979  0.58046  -98.20
1981.981982  0.58689  -98.28
1984.984985  0.59293  -98.23
1987.987988  0.59757  -98.14
1990.990991  0.60257  -98.53
1993.993994  0.60930  -98.65
1996.996997  0.61548  -98.91
2000.000000  0.62105  -99.07
2003.003003  0.62723  -99.30
2006.006006  0.63382  -99.61
2009.009009  0.63912  -99.97
2012.012012  0.64593 -100.20
2015.015015  0.65043 -100.64
2018.018018  0.65747 -100.99
2021.021021  0.66167 -101.65
2024.024024  0.66733 -102.08
2027.027027  0.67314 -102.42
2030.030030  0.67810 -102.97
2033.033033  0.68181 -103.62
2036.036036  0.68624 -103.96
2039.039039  0.69281 -104.57
2042.042042  0.69509 -104.93
2045.045045  0.69996 -105.83
2048.048048  0.70423 -106.28
2051.051051  0.70762 -106.89
2054.054054  0.70930 -107.28
2057.057057  0.71274 -108.18
2060.060060  0.71695 -108.69
2063.063063  0.71974 -109.33
2066.066066  0.72226 -109.94
2069.069069  0.72418 -110.60
2072.072072  0.72725 -111.42
2075.075075  0.72704 -111.80
2078.078078  0.73066 -112.70
2081.081081  0.73106 -113.04
2084.084084  0.73367 -113.87
2087.087087  0.73418 -114.52
2090.090090  0.73580 -115.28
2093.093093  0.73554 -116.05
2096.096096  0.73677 -116.46
2099.099099  0.73866 -117.32
2102.102102  0.73734 -117.97
2105.105105  0.74019 -118.67
2108.108108  0.74103 -119.37
2111.111111  0.74112 -120.05
2114.114114  0.74326 -120.98
2117.117117  0.74321 -121.67
2120.120120  0.74412 -122.67
2123.123123  0.74399 -123.17
2126.126126  0.74457 -124.32
2129.129129  0.74387 -125.00
2132.132132  0.74284 -125.94
2135.135135  0.74313 -126.65
2138.138138  0.74006 -127.69
2141.141141  0.73900 -128.47
2144.144144  0.73569 -129.40
2147.147147  0.73548 -130.46
2150.150150  0.73278 -131.29
2153.153153  0.72919 -132.30
2156.156156  0.72698 -133.13
2159.159159  0.72279 -134.23
2162.162162  0.71967 -135.33
2165.165165  0.71345 -136.11
2168.168168  0.71049 -137.35
2171.171171  0.70405 -138.33
2174.174174  0.69838 -139.67
2177.177177  0.69053 -140.62
2180.180180  0.68272 -141.95
2183.183183  0.67433 -143.08
2186.186186  0.66516 -144.34
2189.189189  0.65428 -145.82
2192.192192  0.64157 -146.71
2195.195195  0.62865 -148.28
2198.198198  0.61414 -149.37
2201.201201  0.60058 -150.50
2204.204204  0.58144 -151.80
2207.207207  0.56366 -152.64
2210.210210  0.54543 -153.59
2213.213213  0.52520 -154.32
2216.216216  0.50540 -155.07
2219.219219  0.48544 -155.48
2222.222222  0.46459 -156.03
2225.225225  0.44429 -155.72
2228.228228  0.42440 -155.81
2231.231231  0.40525 -155.27
2234.234234  0.38780 -154.68
2237.237237  0.37074 -153.55
2240.240240  0.35387 -152.08
2243.243243  0.33861 -150.81
2246.246246  0.32383 -148.64
2249.249249  0.31226 -146.79
2252.252252  0.30211 -144.10
2255.255255  0.29168 -141.33
2258.258258  0.28543 -138.33
2261.261261  0.28102 -135.63
2264.264264  0.27787 -132.56
2267.267267  0.27626 -129.25
2270.270270  0.27696 -126.04
2273.273273  0.27996 -123.14
2276.276276  0.28400 -120.55
2279.279279  0.28940 -117.89
2282.282282  0.29626 -115.26
2285.285285  0.30501 -113.21
2288.288288  0.31404 -111.17
2291.291291  0.32454 -109.68
2294.294294  0.33508 -108.34
2297.297297  0.34572 -107.36
2300.300300  0.35799 -106.20
2303.303303  0.36963 -105.58
2306.306306  0.38134 -104.90
2309.309309  0.39226 -104.49
2312.312312  0.40469 -104.22
2315.315315  0.41623 -103.96
2318.318318  0.42817 -104.14
2321.321321  0.44049 -104.08
2324.324324  0.45043 -104.39
2327.327327  0.46221 -104.60
2330.330330  0.47219 -104.83
2333.333333  0.48306 -105.23
2336.336336  0.49292 -105.60
2339.339339  0.50181 -106.30
2342.342342  0.51201 -106.74
2345.345345  0.52020 -107.32
2348.348348  0.52861 -107.86
2351.351351  0.53738 -108.46
2354.354354  0.54374 -109.14
2357.357357  0.55069 -109.73
2360.360360  0.55888 -110.29
2363.363363  0.56420 -111.14
2366.366366  0.57100 -111.71
2369.369369  0.57671 -112.28
2372.372372  0.58212 -113.00
2375.375375  0.58609 -113.75
2378.378378  0.59071 -114.63
2381.381381  0.59430 -115.26
2384.384384  0.59781 -116.04
2387.387387  0.60162 -116.52
2390.390390  0.60506 -117.27
2393.393393  0.60852 -118.04
2396.396396  0.60995 -118.33
2399.399399  0.61392 -119.41
2402.402402  0.61603 -119.91
2405.405405  0.61718 -120.61
2408.408408  0.62102 -121.01
2411.411411  0.62275 -121.65
2414.414414  0.62487 -122.86
2417.417417  0.62664 -123.33
2420.420420  0.62926 -124.10
2423.423423  0.62727 -124.79
2426.426426  0.62955 -125.77
2429.429429  0.62858 -126.20
2432.432432  0.62904 -126.92
2435.435435  0.62707 -127.71
2438.438438  0.62644 -128.34
2441.441441  0.62543 -129.21
2444.444444  0.62263 -129.60
2447.447447  0.62164 -130.75
2450.450450  0.61906 -131.21
2453.453453  0.61658 -132.00
2456.456456  0.61294 -132.46
2459.459459  0.60969 -133.36
2462.462462  0.60542 -133.69
2465.465465  0.60299 -134.33
2468.468468  0.59694 -134.58
2471.471471  0.59459 -135.32
2474.474474  0.58943 -135.82
2477.477477  0.58523 -136.09
2480.480480  0.58062 -136.79
2483.483483  0.57600 -137.10
2486.486486  0.57183 -137.62
2489.489489  0.56656 -137.84
2492.492492  0.56008 -138.06
2495.495495  0.55539 -138.63
2498.498498  0.54794 -138.56
2501.501502  0.54462 -139.03
2504.504505  0.53776 -139.08
2507.507508  0.53131 -139.33
2510.510511  0.52671 -139.24
2513.513514  0.52106 -139.32
2516.516517  0.51596 -139.51
2519.519520  0.51070 -139.40
2522.522523  0.50598 -139.30
2525.525526  0.49981 -139.06
2528.528529  0.49412 -138.81
2531.531532  0.48976 -138.52
2534.534535  0.48491 -138.11
2537.537538  0.48167 -137.67
2540.540541  0.47812 -137.10
2543.543544  0.47550 -136.64
2546.546547  0.47380 -136.28
2549.549550  0.47249 -135.76
2552.552553  0.47137 -135.12
2555.555556  0.47187 -135.03
2558.558559  0.47160 -134.41
2561.561562  0.47208 -133.80
2564.564565  0.47227 -133.14
2567.567568  0.47462 -132.81
2570.570571  0.47704 -132.38
2573.573574  0.47869 -131.87
2576.576577  0.48220 -131.66
2579.579580  0.48540 -131.09
2582.582583  0.48855 -131.03
2585.585586  0.49272 -130.61
2588.588589  0.49721 -130.49
2591.591592  0.50125 -130.45
2594.594595  0.50552 -130.14
2597.597598  0.51033 -130.01
2600.600601  0.51509 -130.05
2603.603604  0.52027 -130.17
2606.606607  0.52484 -130.11
2609.609610  0.53086 -130.25
2612.612613  0.53559 -130.42
2615.615616  0.54026 -130.60
2618.618619  0.54531 -131.03
2621.621622  0.55062 -131.16
2624.624625  0.55575 -131.54
2627.627628  0.56008 -131.83
2630.630631  0.56456 -132.17
2633.633634  0.56852 -132.59
2636.636637  0.57334 -133.20
2639.639640  0.57675 -133.43
2642.642643  0.58105 -134.12
2645.645646  0.58611 -134.74
2648.648649  0.58829 -135.09
2651.651652  0.59201 -135.57
2654.654655  0.59397 -136.01
2657.657658  0.59643 -136.96
2660.660661  0.59938 -137.30
2663.663664  0.60100 -138.01
2666.666667  0.60183 -138.27
2669.669670  0.60359 -139.27
2672.672673  0.60246 -139.83
2675.675676  0.60359 -140.18
2678.678679  0.60496 -141.09
2681.681682  0.60539 -141.61
2684.684685  0.60622 -142.07
2687.687688  0.60598 -142.30
2690.690691  0.60805 -143.19
2693.693694  0.60911 -143.49
2696.696697  0.61059 -144.24
2699.699700  0.61181 -144.68
2702.702703  0.61247 -145.17
2705.705706  0.61258 -146.25
2708.708709  0.61324 -146.89
2711.711712  0.61146 -147.77
2714.714715  0.61148 -148.10
2717.717718  0.61020 -149.23
2720.720721  0.60708 -150.22
2723.723724  0.60557 -150.39
2726.726727  0.60209 -151.60
2729.729730  0.59850 -152.05
2732.732733  0.59533 -152.85
2735.735736  0.59150 -153.40
2738.738739  0.58794 -154.50
2741.741742  0.58451 -155.33
2744.744745  0.57889 -155.29
2747.747748  0.57525 -156.80
2750.750751  0.57082 -157.42
2753.753754  0.56601 -158.05
2756.756757  0.56112 -158.40
2759.759760  0.55431 -159.37
2762.762763  0.54807 -159.32
2765.765766  0.54445 -160.43
2768.768769  0.53838 -160.96
2771.771772  0.53071 -161.68
2774.774775  0.52276 -162.38
2777.777778  0.51774 -162.22
2780.780781  0.51086 -163.18
2783.783784  0.50556 -163.52
2786.786787  0.49755 -164.00
2789.789790  0.48924 -164.41
2792.792793  0.48220 -164.94
2795.795796  0.47615 -165.20
2798.798799  0.46810 -165.57
2801.801802  0.46000 -165.88
2804.804805  0.45323 -165.97
2807.807808  0.44533 -166.23
2810.810811  0.43868 -166.35
2813.813814  0.43130 -166.23
2816.816817  0.42378 -166.24
2819.819820  0.41655 -166.06
2822.822823  0.40957 -166.03
2825.825826  0.40347 -165.78
2828.828829  0.39527 -165.35
2831.831832  0.38998 -164.92
2834.834835  0.38419 -164.29
2837.837838  0.37970 -163.84
2840.840841  0.37618 -163.36
2843.843844  0.37119 -162.58
2846.846847  0.36831 -162.10
2849.849850  0.36498 -161.47
2852.852853  0.36288 -160.65
2855.855856  0.36160 -160.19
2858.858859  0.35875 -159.27
2861.861862  0.35674 -158.13
2864.864865  0.35688 -157.94
2867.867868  0.35582 -156.80
2870.870871  0.35625 -156.37
2873.873874  0.35852 -155.84
2876.876877  0.35811 -155.30
2879.879880  0.36098 -154.87
2882.882883  0.36239 -154.64
2885.885886  0.36373 -154.32
2888.888889  0.36718 -153.90
2891.891892  0.37027 -153.79
2894.894895  0.37178 -153.31
2897.897898  0.37536 -153.59
2900.900901  0.37831 -153.43
2903.903904  0.38178 -153.54
2906.906907  0.38563 -153.54
2909.909910  0.38833 -153.79
2912.912913  0.39185 -153.72
2915.915916  0.39453 -154.13
2918.918919  0.39775 -154.52
2921.921922  0.40026 -154.78
2924.924925  0.40365 -155.19
2927.927928  0.40539 -155.85
2930.930931  0.40880 -156.18
2933.933934  0.41089 -156.80
2936.936937  0.41265 -157.29
2939.939940  0.41449 -158.02
2942.942943  0.41574 -158.91
2945.945946  0.41751 -159.54
2948.948949  0.41868 -160.17
2951.951952  0.41996 -161.10
2954.954955  0.41973 -161.50
2957.957958  0.41983 -162.55
2960.960961  0.41872 -163.41
2963.963964  0.41931 -164.46
2966.966967  0.41727 -165.15
2969.969970  0.41686 -165.99
2972.972973  0.41546 -167.07
2975.975976  0.41237 -167.53
2978.978979  0.41111 -168.52
2981.981982  0.40940 -169.07
2984.984985  0.40755 -169.67
2987.987988  0.40622 -170.73
2990.990991  0.40424 -171.77
2993.993994  0.40131 -172.63
2996.996997  0.40008 -173.83
3000.000000  0.39733 -174.88
3003.003003  0.39329 -176.13
3006.006006  0.39024 -177.26
3009.009009  0.38472 -178.47
3012.012012  0.38220 -179.49
3015.015015  0.37673  179.09
3018.018018  0.37201  177.85
3021.021021  0.36548  176.61
3024.024024  0.35940  175.34
3027.027027  0.35445  174.49
3030.030030  0.34659  173.13
3033.033033  0.34074  171.82
3036.036036  0.33388  170.57
3039.039039  0.32716  169.58
3042.042042  0.31727  168.23
3045.045045  0.31156  166.99
3048.048048  0.30159  165.72
3051.051051  0.29332  164.46
3054.054054  0.28660  163.09
3057.057057  0.27744  162.36
3060.060060  0.26910  160.69
3063.063063  0.26159  159.55
