# MHz S MA R 50
!   freq        S11              S21              S12              S22       
1000.000000  0.29444   48.16  0.66791 -100.32  0.66574 -100.30  0.29603   48.48
1003.003003  0.28120   40.83  0.70555  -99.61  0.70306  -99.62  0.28275   41.21
1006.006006  0.26610   33.89  0.74121  -99.85  0.73979  -99.76  0.26737   34.22
1009.009009  0.24968   27.52  0.77302 -100.18  0.77189 -100.19  0.25108   27.82
1012.012012  0.23469   21.99  0.80247 -101.02  0.80110 -100.97  0.23519   22.39
1015.015015  0.21833   17.03  0.82721 -102.10  0.82614 -102.01  0.21976   17.02
1018.018018  0.20402   11.85  0.84708 -103.22  0.84712 -103.08  0.20507   12.11
1021.021021  0.19013    7.25  0.86297 -104.41  0.86322 -104.23  0.19207    7.72
1024.024024  0.17743    3.10  0.87822 -105.47  0.87847 -105.30  0.17883    3.21
1027.027027  0.16561   -0.37  0.89047 -106.43  0.88964 -106.36  0.16714   -0.34
1030.030030  0.15427   -3.35  0.89975 -107.56  0.90042 -107.49  0.15558   -3.40
1033.033033  0.14384   -6.12  0.90742 -108.52  0.90802 -108.40  0.14510   -6.14
1036.036036  0.13416   -7.97  0.91523 -109.54  0.91593 -109.34  0.13524   -8.17
1039.039039  0.12518   -9.91  0.91887 -110.44  0.92003 -110.34  0.12616  -10.07
1042.042042  0.11719  -10.99  0.92453 -111.30  0.92474 -111.25  0.11825  -11.36
1045.045045  0.10858  -11.84  0.92721 -112.10  0.92759 -111.98  0.10966  -12.24
1048.048048  0.10107  -12.30  0.93027 -112.92  0.93138 -112.85  0.10221  -12.71
1051.051051  0.09618  -11.76  0.93285 -113.70  0.93396 -113.56  0.09715  -12.21
1054.054054  0.08997  -11.31  0.93531 -114.25  0.93631 -114.27  0.09110  -11.67
1057.057057  0.08518   -9.40  0.93737 -115.04  0.93814 -114.89  0.08586  -10.15
1060.060060  0.08095   -7.65  0.93932 -115.69  0.93961 -115.57  0.08174   -8.24
1063.063063  0.07800   -5.02  0.94120 -116.26  0.94218 -116.16  0.07876   -5.75
1066.066066  0.07553   -2.49  0.94295 -116.81  0.94327 -116.75  0.07649   -3.23
1069.069069  0.07487    0.67  0.94394 -117.43  0.94516 -117.38  0.07522   -0.11
1072.072072  0.07478    4.06  0.94491 -118.07  0.94644 -118.09  0.07531    3.20
1075.075075  0.07587    6.97  0.94743 -118.63  0.94790 -118.59  0.07617    6.10
1078.078078  0.07743    9.84  0.94855 -119.32  0.94927 -119.18  0.07775    9.00
1081.081081  0.08032   12.50  0.95021 -119.69  0.95085 -119.74  0.08052   11.70
1084.084084  0.08349   14.57  0.95050 -120.44  0.95134 -120.35  0.08350   13.73
1087.087087  0.08763   16.38  0.95141 -120.88  0.95213 -120.83  0.08777   15.67
1090.090090  0.09221   17.87  0.95113 -121.56  0.95262 -121.47  0.09216   17.18
1093.093093  0.09739   18.87  0.95328 -122.00  0.95451 -122.03  0.09729   18.26
1096.096096  0.10241   19.66  0.95258 -122.69  0.95378 -122.67  0.10213   18.91
1099.099099  0.10756   19.69  0.95585 -123.27  0.95502 -123.12  0.10753   19.19
1102.102102  0.11371   19.66  0.95510 -123.80  0.95545 -123.76  0.11369   19.17
1105.105105  0.11939   19.54  0.95530 -124.43  0.95527 -124.35  0.11941   19.08
1108.108108  0.12507   18.81  0.95513 -124.86  0.95591 -124.94  0.12485   18.24
1111.111111  0.13116   17.99  0.95321 -125.50  0.95475 -125.44  0.13082   17.53
1114.114114  0.13736   17.38  0.95446 -126.07  0.95568 -126.01  0.13736   16.99
1117.117117  0.14442   16.05  0.95271 -126.62  0.95450 -126.60  0.14433   15.57
1120.120120  0.15156   14.89  0.95191 -127.17  0.95205 -127.04  0.15150   14.52
1123.123123  0.15736   13.83  0.95001 -127.67  0.95086 -127.66  0.15818   13.46
1126.126126  0.16388   12.66  0.94804 -128.28  0.94907 -128.28  0.16335   12.31
1129.129129  0.16986   11.11  0.94609 -128.61  0.94696 -128.62  0.17047   10.70
1132.132132  0.17557   10.01  0.94325 -129.31  0.94520 -129.24  0.17566    9.58
1135.135135  0.18249    8.41  0.94079 -129.71  0.94169 -129.71  0.18257    8.15
1138.138138  0.18740    7.00  0.93926 -130.25  0.94041 -130.20  0.18747    6.46
1141.141141  0.19379    5.67  0.93743 -130.69  0.93628 -130.69  0.19410    5.14
1144.144144  0.19980    3.71  0.93218 -131.18  0.93570 -131.09  0.20018    3.30
1147.147147  0.20604    2.10  0.93136 -131.53  0.93249 -131.46  0.20638    1.71
1150.150150  0.21162    0.61  0.92703 -132.02  0.92749 -131.92  0.21151    0.49
1153.153153  0.21639   -1.01  0.92506 -132.34  0.92630 -132.31  0.21735   -1.47
1156.156156  0.22329   -2.57  0.92313 -132.65  0.92367 -132.74  0.22338   -3.06
1159.159159  0.22802   -4.51  0.92072 -133.25  0.92119 -133.08  0.22815   -4.75
1162.162162  0.23325   -5.90  0.91646 -133.43  0.91818 -133.37  0.23378   -6.26
1165.165165  0.23771   -7.64  0.91284 -133.80  0.91416 -133.75  0.23788   -7.94
1168.168168  0.24316   -9.24  0.91053 -133.98  0.91212 -133.95  0.24392   -9.56
1171.171171  0.24673  -11.07  0.90865 -134.28  0.90958 -134.33  0.24742  -11.23
1174.174174  0.25072  -12.85  0.90632 -134.75  0.90738 -134.59  0.25128  -12.89
1177.177177  0.25476  -14.36  0.90417 -134.92  0.90467 -134.89  0.25439  -14.67
1180.180180  0.25912  -16.07  0.90082 -135.29  0.90215 -135.07  0.25988  -16.29
1183.183183  0.26301  -17.51  0.89927 -135.31  0.89972 -135.30  0.26290  -17.86
1186.186186  0.26663  -19.13  0.89852 -135.73  0.89932 -135.67  0.26743  -19.48
1189.189189  0.27026  -21.02  0.89487 -135.85  0.89574 -135.79  0.27026  -21.23
1192.192192  0.27377  -22.49  0.89389 -136.11  0.89536 -136.06  0.27385  -22.57
1195.195195  0.27611  -24.01  0.89305 -136.24  0.89306 -136.13  0.27661  -24.16
1198.198198  0.27967  -25.81  0.89242 -136.46  0.89342 -136.43  0.27989  -26.01
1201.201201  0.28149  -27.41  0.89175 -136.68  0.89350 -136.61  0.28288  -27.52
1204.204204  0.28466  -28.82  0.89131 -136.77  0.89164 -136.76  0.28487  -29.06
1207.207207  0.28575  -30.75  0.89074 -137.15  0.89281 -136.95  0.28758  -30.86
1210.210210  0.28818  -32.02  0.89162 -137.13  0.89265 -137.16  0.28845  -32.13
1213.213213  0.29051  -33.80  0.89156 -137.38  0.89291 -137.27  0.29120  -33.96
1216.216216  0.29201  -35.11  0.89276 -137.52  0.89357 -137.55  0.29228  -35.20
1219.219219  0.29314  -36.71  0.89381 -137.73  0.89510 -137.77  0.29392  -36.90
1222.222222  0.29451  -38.32  0.89571 -137.93  0.89598 -137.80  0.29426  -38.36
1225.225225  0.29463  -39.64  0.89635 -138.02  0.89776 -137.99  0.29459  -39.59
1228.228228  0.29633  -41.10  0.89979 -138.26  0.90068 -138.05  0.29623  -41.19
1231.231231  0.29555  -42.47  0.90175 -138.42  0.90231 -138.33  0.29586  -42.66
1234.234234  0.29685  -43.99  0.90265 -138.71  0.90486 -138.64  0.29752  -44.08
1237.237237  0.29606  -45.30  0.90534 -138.71  0.90664 -138.71  0.29611  -45.34
1240.240240  0.29607  -46.67  0.90889 -139.07  0.91059 -138.93  0.29616  -46.74
1243.243243  0.29524  -47.97  0.91278 -139.27  0.91355 -139.09  0.29501  -48.02
1246.246246  0.29474  -49.21  0.91525 -139.54  0.91640 -139.52  0.29541  -49.40
1249.249249  0.29253  -50.72  0.91768 -139.86  0.91796 -139.73  0.29360  -50.78
1252.252252  0.29019  -51.96  0.92065 -140.08  0.92167 -140.13  0.29229  -52.20
1255.255255  0.29017  -53.17  0.92417 -140.49  0.92540 -140.50  0.29067  -53.28
1258.258258  0.28825  -54.46  0.92747 -140.76  0.92863 -140.78  0.28913  -54.58
1261.261261  0.28607  -55.57  0.93138 -141.32  0.93331 -141.19  0.28671  -55.76
1264.264264  0.28288  -56.82  0.93801 -141.67  0.93826 -141.64  0.28395  -57.04
1267.267267  0.27937  -57.84  0.93954 -142.13  0.94079 -142.13  0.28140  -58.20
1270.270270  0.27766  -59.17  0.94177 -142.63  0.94362 -142.59  0.27827  -59.28
1273.273273  0.27473  -59.96  0.94694 -143.08  0.94834 -142.92  0.27480  -59.98
1276.276276  0.27040  -61.13  0.94909 -143.49  0.95007 -143.48  0.27085  -61.05
1279.279279  0.26771  -61.94  0.95392 -144.13  0.95432 -143.99  0.26720  -61.98
1282.282282  0.26404  -62.77  0.95548 -144.63  0.95801 -144.46  0.26515  -62.79
1285.285285  0.25988  -63.40  0.95978 -145.11  0.96108 -145.04  0.25989  -63.53
1288.288288  0.25559  -64.22  0.96229 -145.61  0.96372 -145.58  0.25612  -64.50
1291.291291  0.25051  -65.13  0.96537 -146.20  0.96593 -146.10  0.25056  -65.24
1294.294294  0.24607  -65.65  0.96664 -146.71  0.96810 -146.62  0.24645  -65.77
1297.297297  0.24145  -66.23  0.97136 -147.32  0.97111 -147.24  0.24131  -66.43
1300.300300  0.23639  -66.73  0.97276 -147.89  0.97366 -147.85  0.23671  -66.79
1303.303303  0.23060  -67.12  0.97357 -148.47  0.97566 -148.43  0.23075  -67.41
1306.306306  0.22488  -67.59  0.97573 -148.94  0.97721 -149.00  0.22520  -67.77
1309.309309  0.22046  -67.73  0.97772 -149.70  0.97944 -149.56  0.22070  -67.94
1312.312312  0.21475  -67.76  0.97855 -150.12  0.98075 -150.17  0.21517  -67.95
1315.315315  0.20889  -67.44  0.97700 -150.77  0.97876 -150.60  0.20914  -67.63
1318.318318  0.20425  -67.13  0.97921 -151.33  0.98062 -151.28  0.20439  -67.36
1321.321321  0.19928  -66.71  0.97721 -151.90  0.97896 -151.93  0.19953  -66.91
1324.324324  0.19446  -66.05  0.97839 -152.44  0.97994 -152.33  0.19454  -66.34
1327.327327  0.19038  -65.26  0.97668 -153.05  0.97880 -153.00  0.19025  -65.58
1330.330330  0.18669  -64.23  0.97891 -153.68  0.97962 -153.66  0.18699  -64.45
1333.333333  0.18232  -62.95  0.97590 -154.11  0.97824 -154.10  0.18244  -63.33
1336.336336  0.18010  -61.69  0.97506 -154.91  0.97570 -154.75  0.17988  -61.92
1339.339339  0.17640  -60.28  0.97513 -155.29  0.97694 -155.26  0.17603  -60.71
1342.342342  0.17376  -58.59  0.97321 -156.04  0.97497 -156.05  0.17368  -58.87
1345.345345  0.17185  -56.76  0.97108 -156.64  0.97360 -156.47  0.17187  -57.08
1348.348348  0.17038  -54.48  0.96944 -157.15  0.97068 -157.15  0.16972  -54.80
1351.351351  0.17071  -52.55  0.96642 -157.93  0.96978 -157.85  0.17033  -52.80
1354.354354  0.17018  -50.47  0.96537 -158.38  0.96729 -158.39  0.16953  -50.70
1357.357357  0.17160  -47.92  0.96329 -158.97  0.96382 -158.85  0.17132  -48.38
1360.360360  0.17397  -46.03  0.96080 -159.36  0.96327 -159.31  0.17327  -46.43
1363.363363  0.17704  -43.82  0.95756 -160.13  0.95922 -160.03  0.17664  -43.88
1366.366366  0.17896  -41.44  0.95561 -160.55  0.95733 -160.52  0.17810  -41.95
1369.369369  0.18357  -39.97  0.95212 -161.21  0.95351 -161.13  0.18317  -40.11
1372.372372  0.18903  -37.84  0.95003 -161.72  0.95161 -161.68  0.18862  -38.36
1375.375375  0.19347  -36.47  0.94609 -162.11  0.94792 -162.18  0.19241  -36.46
1378.378378  0.19993  -35.12  0.94285 -162.81  0.94413 -162.73  0.19924  -35.21
1381.381381  0.20613  -33.92  0.93919 -163.13  0.94004 -163.17  0.20577  -33.99
1384.384384  0.21273  -33.05  0.93442 -163.72  0.93625 -163.61  0.21218  -33.27
1387.387387  0.21989  -32.17  0.93042 -164.12  0.93201 -164.06  0.21942  -32.41
1390.390390  0.22774  -31.81  0.92782 -164.68  0.93015 -164.61  0.22700  -31.82
1393.393393  0.23556  -31.20  0.92457 -164.92  0.92581 -164.88  0.23502  -31.31
1396.396396  0.24367  -31.00  0.92058 -165.51  0.92180 -165.54  0.24298  -31.04
1399.399399  0.25223  -30.99  0.91779 -166.02  0.91786 -165.90  0.25147  -31.17
1402.402402  0.26120  -30.88  0.91305 -166.34  0.91362 -166.38  0.26015  -30.98
1405.405405  0.26880  -31.03  0.90757 -166.75  0.90944 -166.82  0.26802  -31.13
1408.408408  0.27794  -31.37  0.90389 -167.09  0.90539 -167.06  0.27693  -31.28
1411.411411  0.28743  -31.92  0.90026 -167.62  0.90181 -167.58  0.28648  -31.89
1414.414414  0.29745  -32.49  0.89638 -167.86  0.89744 -167.91  0.29636  -32.24
1417.417417  0.30580  -32.99  0.89204 -168.41  0.89415 -168.30  0.30453  -32.95
1420.420420  0.31426  -33.60  0.88794 -168.76  0.88932 -168.64  0.31461  -33.59
1423.423423  0.32340  -33.96  0.88301 -169.08  0.88444 -169.13  0.32153  -34.13
1426.426426  0.33132  -35.12  0.87958 -169.55  0.88081 -169.36  0.32997  -34.80
1429.429429  0.34025  -35.59  0.87457 -169.61  0.87549 -169.55  0.34000  -35.54
1432.432432  0.34612  -36.26  0.87039 -170.29  0.87191 -170.04  0.34636  -36.07
1435.435435  0.35440  -36.78  0.86565 -170.19  0.86747 -170.25  0.35441  -36.76
1438.438438  0.36258  -37.73  0.86357 -170.61  0.86354 -170.63  0.36193  -37.84
1441.441441  0.36972  -38.78  0.85903 -170.81  0.86017 -170.86  0.36911  -38.77
1444.444444  0.37670  -39.58  0.85443 -171.07  0.85601 -171.16  0.37629  -39.57
1447.447447  0.38396  -40.68  0.85144 -171.28  0.85189 -171.23  0.38364  -40.65
1450.450450  0.39117  -41.62  0.84681 -171.50  0.84811 -171.45  0.39081  -41.59
1453.453453  0.39776  -42.54  0.84357 -171.73  0.84484 -171.62  0.39823  -42.35
1456.456456  0.40436  -43.42  0.83964 -171.70  0.84141 -171.79  0.40435  -43.44
1459.459459  0.41103  -44.62  0.83728 -172.10  0.83928 -172.03  0.41104  -44.63
1462.462462  0.41689  -45.45  0.83333 -172.08  0.83419 -172.05  0.41658  -45.47
1465.465465  0.42230  -46.49  0.83032 -172.26  0.83254 -172.18  0.42219  -46.35
1468.468468  0.42803  -47.42  0.82794 -172.31  0.82895 -172.19  0.42788  -47.35
1471.471471  0.43337  -48.64  0.82679 -172.58  0.82731 -172.56  0.43358  -48.61
1474.474474  0.43946  -49.61  0.82534 -172.68  0.82722 -172.62  0.43719  -49.43
1477.477477  0.44175  -50.38  0.82110 -172.61  0.82325 -172.60  0.44327  -50.59
1480.480480  0.44811  -51.67  0.82058 -172.89  0.82154 -172.79  0.44741  -51.68
1483.483483  0.45110  -52.49  0.81850 -172.69  0.81979 -172.69  0.45193  -52.57
1486.486486  0.45532  -53.55  0.81835 -173.03  0.81934 -172.83  0.45519  -53.44
1489.489489  0.45824  -54.50  0.81702 -173.07  0.81861 -173.05  0.45887  -54.58
1492.492492  0.46265  -55.78  0.81660 -173.13  0.81893 -173.08  0.46323  -55.72
1495.495495  0.46471  -56.70  0.81529 -173.08  0.81614 -173.09  0.46498  -56.61
1498.498498  0.46761  -57.63  0.81631 -173.25  0.81720 -173.22  0.46755  -57.66
1501.501502  0.47100  -58.67  0.81620 -173.41  0.81690 -173.38  0.46974  -58.71
1504.504505  0.47242  -59.69  0.81521 -173.49  0.81611 -173.48  0.47268  -59.63
1507.507508  0.47463  -60.79  0.81708 -173.65  0.81729 -173.51  0.47361  -60.69
1510.510511  0.47602  -61.74  0.81807 -173.64  0.81955 -173.57  0.47671  -61.67
1513.513514  0.47714  -62.43  0.81782 -173.89  0.81994 -173.70  0.47764  -62.59
1516.516517  0.47884  -63.51  0.81969 -173.71  0.82186 -173.80  0.47826  -63.53
1519.519520  0.48018  -64.58  0.82151 -173.94  0.82290 -173.98  0.47970  -64.55
1522.522523  0.47978  -65.54  0.82438 -174.07  0.82562 -173.98  0.47966  -65.39
1525.525526  0.48091  -66.45  0.82692 -174.20  0.82787 -174.25  0.48061  -66.50
1528.528529  0.48178  -67.45  0.82863 -174.50  0.82966 -174.39  0.48159  -67.31
1531.531532  0.48019  -68.23  0.83208 -174.40  0.83217 -174.37  0.47969  -68.39
1534.534535  0.48000  -69.25  0.83437 -174.72  0.83474 -174.60  0.47982  -69.33
1537.537538  0.48009  -70.24  0.83773 -174.63  0.83894 -174.62  0.47981  -70.25
1540.540541  0.47973  -71.28  0.84034 -175.20  0.84166 -175.09  0.47985  -71.21
1543.543544  0.47797  -71.96  0.84404 -175.19  0.84540 -175.13  0.47784  -71.95
1546.546547  0.47689  -72.81  0.84791 -175.58  0.84847 -175.41  0.47608  -72.79
1549.549550  0.47502  -73.72  0.85165 -175.76  0.85323 -175.74  0.47535  -73.76
1552.552553  0.47285  -74.41  0.85480 -175.99  0.85763 -175.98  0.47342  -74.58
1555.555556  0.47003  -75.21  0.85906 -176.31  0.86145 -176.18  0.47168  -75.22
1558.558559  0.46738  -75.88  0.86399 -176.58  0.86571 -176.52  0.46748  -75.82
1561.561562  0.46536  -76.49  0.86701 -177.08  0.86919 -176.88  0.46653  -76.60
1564.564565  0.46256  -77.23  0.87238 -177.33  0.87439 -177.30  0.46295  -77.28
1567.567568  0.46042  -77.94  0.87700 -177.96  0.87826 -177.70  0.46017  -77.96
1570.570571  0.45651  -78.67  0.88124 -178.18  0.88100 -178.05  0.45509  -78.68
1573.573574  0.45298  -79.24  0.88490 -178.68  0.88660 -178.64  0.45295  -79.06
1576.576577  0.44907  -79.57  0.89030 -179.10  0.89197 -179.05  0.44945  -79.62
1579.579580  0.44562  -79.99  0.89340 -179.43  0.89504 -179.41  0.44523  -80.03
1582.582583  0.44175  -80.60  0.89715  179.77  0.89890  180.00  0.44140  -80.63
1585.585586  0.43677  -81.10  0.90189  179.41  0.90380  179.33  0.43648  -81.11
1588.588589  0.43274  -81.29  0.90481  178.71  0.90587  178.83  0.43327  -81.34
1591.591592  0.42908  -81.68  0.90819  178.17  0.91053  178.24  0.42785  -81.69
1594.594595  0.42225  -81.96  0.91207  177.54  0.91335  177.66  0.42261  -82.15
1597.597598  0.41906  -82.21  0.91502  176.99  0.91614  176.97  0.41802  -82.19
1600.600601  0.41457  -82.32  0.91635  176.29  0.91875  176.36  0.41455  -82.41
1603.603604  0.40881  -82.38  0.92054  175.57  0.92127  175.71  0.40746  -82.29
1606.606607  0.40452  -82.39  0.92195  174.98  0.92324  174.84  0.40374  -82.38
1609.609610  0.39896  -82.28  0.92336  174.15  0.92582  174.34  0.39878  -82.29
1612.612613  0.39574  -82.16  0.92446  173.76  0.92630  173.65  0.39510  -82.22
1615.615616  0.39099  -81.99  0.92535  172.85  0.92797  172.80  0.39053  -81.89
1618.618619  0.38736  -81.43  0.92608  172.21  0.92867  172.15  0.38631  -81.48
1621.621622  0.38412  -81.19  0.92804  171.51  0.92977  171.49  0.38265  -81.12
1624.624625  0.37971  -80.90  0.92792  170.75  0.92915  170.93  0.37843  -80.70
1627.627628  0.37747  -80.35  0.92779  170.07  0.92820  170.04  0.37612  -80.08
1630.630631  0.37377  -79.71  0.92687  169.22  0.92895  169.31  0.37235  -79.50
1633.633634  0.37133  -78.92  0.92512  168.78  0.92740  168.69  0.36996  -78.85
1636.636637  0.36913  -78.13  0.92382  167.77  0.92578  167.88  0.36837  -78.04
1639.639640  0.36821  -77.47  0.92080  167.30  0.92249  167.24  0.36726  -77.62
1642.642643  0.36793  -76.57  0.91895  166.50  0.92144  166.64  0.36726  -76.63
1645.645646  0.36777  -75.98  0.91703  165.74  0.91824  165.84  0.36657  -75.86
1648.648649  0.36823  -75.07  0.91284  164.90  0.91378  165.03  0.36750  -75.08
1651.651652  0.36860  -74.25  0.91037  164.09  0.91208  164.20  0.36806  -74.13
1654.654655  0.37005  -73.46  0.90467  163.62  0.90719  163.60  0.36898  -73.60
1657.657658  0.37250  -72.76  0.90190  162.73  0.90321  162.87  0.37159  -72.64
1660.660661  0.37574  -71.81  0.89609  162.35  0.89860  162.23  0.37492  -71.87
1663.663664  0.37955  -71.19  0.89228  161.50  0.89303  161.57  0.37819  -71.09
1666.666667  0.38409  -70.49  0.88565  161.02  0.88683  161.04  0.38290  -70.32
1669.669670  0.38903  -69.92  0.88065  160.29  0.88185  160.26  0.38780  -69.84
1672.672673  0.39342  -69.48  0.87442  159.51  0.87605  159.66  0.39236  -69.35
1675.675676  0.39957  -68.96  0.86910  159.17  0.87056  159.10  0.39949  -68.90
1678.678679  0.40538  -68.59  0.86172  158.53  0.86350  158.69  0.40466  -68.48
1681.681682  0.41191  -68.07  0.85510  158.18  0.85674  158.10  0.41066  -68.06
1684.684685  0.41901  -67.95  0.84851  157.48  0.85110  157.66  0.41939  -67.79
1687.687688  0.42496  -67.74  0.84209  157.12  0.84393  157.14  0.42446  -67.61
1690.690691  0.43382  -67.46  0.83441  156.55  0.83655  156.59  0.43312  -67.31
1693.693694  0.44075  -67.40  0.82842  156.26  0.82980  156.27  0.44009  -67.28
1696.696697  0.44876  -67.48  0.82156  155.78  0.82285  155.68  0.44795  -67.35
1699.699700  0.45538  -67.60  0.81584  155.40  0.81777  155.50  0.45513  -67.44
1702.702703  0.46496  -67.71  0.80765  155.23  0.80891  155.19  0.46326  -67.58
1705.705706  0.47150  -67.85  0.80190  154.74  0.80245  154.90  0.47028  -67.70
1708.708709  0.48050  -68.03  0.79657  154.72  0.79858  154.70  0.48096  -68.04
1711.711712  0.48769  -68.29  0.78952  154.19  0.78994  154.36  0.48749  -68.21
1714.714715  0.49545  -68.68  0.78377  154.29  0.78564  154.33  0.49530  -68.56
1717.717718  0.50308  -68.91  0.77671  154.10  0.77811  154.07  0.50254  -68.99
1720.720721  0.51083  -69.37  0.77193  153.87  0.77273  153.89  0.51042  -69.16
1723.723724  0.51923  -69.80  0.76620  153.69  0.76725  153.78  0.51822  -69.78
1726.726727  0.52522  -70.34  0.76093  153.61  0.76271  153.68  0.52630  -70.29
1729.729730  0.53270  -70.70  0.75641  153.70  0.75819  153.63  0.53263  -70.63
1732.732733  0.54001  -71.30  0.75181  153.37  0.75360  153.47  0.53992  -71.24
1735.735736  0.54817  -71.94  0.74768  153.41  0.74931  153.38  0.54729  -71.85
1738.738739  0.55417  -72.55  0.74418  153.14  0.74525  153.30  0.55304  -72.54
1741.741742  0.55997  -73.10  0.73997  153.51  0.74229  153.57  0.55962  -72.82
