# MHz S MA R 50
!   freq        S11              S21              S12              S22       
1000.000000  0.18229 -143.73  0.96619 -108.61  0.96703 -108.64  0.18241 -143.86
1003.003003  0.18514 -145.25  0.96259 -108.94  0.96243 -108.93  0.18550 -145.14
1006.006006  0.18833 -146.64  0.95991 -109.46  0.95982 -109.51  0.18822 -146.66
1009.009009  0.19021 -147.95  0.95554 -109.71  0.95685 -109.65  0.19083 -147.96
1012.012012  0.19400 -149.59  0.95333 -109.98  0.95304 -109.94  0.19489 -149.22
1015.015015  0.19697 -150.81  0.95061 -110.20  0.94933 -110.27  0.19607 -150.81
1018.018018  0.19863 -152.37  0.94605 -110.61  0.94667 -110.55  0.19870 -152.48
1021.021021  0.20000 -154.04  0.94152 -110.87  0.94230 -110.91  0.20009 -153.88
1024.024024  0.20131 -155.36  0.93874 -111.07  0.94023 -111.06  0.20184 -155.57
1027.027027  0.20259 -157.15  0.93635 -111.22  0.93699 -111.23  0.20318 -157.07
1030.030030  0.20437 -158.83  0.93474 -111.51  0.93551 -111.47  0.20416 -158.92
1033.033033  0.20498 -160.53  0.93141 -111.60  0.93192 -111.64  0.20494 -160.57
1036.036036  0.20561 -162.00  0.93102 -111.69  0.93034 -111.76  0.20498 -161.90
1039.039039  0.20539 -163.74  0.92685 -112.00  0.92708 -111.90  0.20570 -163.57
1042.042042  0.20466 -165.25  0.92610 -112.12  0.92666 -112.17  0.20500 -165.44
1045.045045  0.20651 -167.27  0.92418 -112.28  0.92449 -112.15  0.20710 -167.05
1048.048048  0.20532 -168.98  0.92328 -112.32  0.92325 -112.41  0.20599 -168.79
1051.051051  0.20398 -170.58  0.92291 -112.56  0.92323 -112.56  0.20508 -170.51
1054.054054  0.20366 -172.28  0.92235 -112.66  0.92269 -112.61  0.20409 -172.15
1057.057057  0.20360 -174.25  0.92164 -112.71  0.92231 -112.73  0.20257 -174.27
1060.060060  0.20231 -176.22  0.92288 -112.88  0.92234 -112.86  0.20273 -176.00
1063.063063  0.20011 -177.88  0.92298 -112.89  0.92274 -112.95  0.19993 -177.96
1066.066066  0.19900 -179.61  0.92410 -113.10  0.92469 -113.03  0.19884 -179.62
1069.069069  0.19785  178.35  0.92496 -113.14  0.92516 -113.11  0.19677  178.44
1072.072072  0.19466  176.35  0.92637 -113.47  0.92687 -113.39  0.19475  176.35
1075.075075  0.19247  174.56  0.92849 -113.53  0.92959 -113.64  0.19321  174.37
1078.078078  0.18985  172.64  0.93020 -113.74  0.93026 -113.73  0.19075  172.59
1081.081081  0.18683  170.35  0.93275 -113.92  0.93244 -113.90  0.18763  170.35
1084.084084  0.18526  168.28  0.93508 -114.10  0.93479 -114.14  0.18402  168.53
1087.087087  0.18075  166.23  0.93736 -114.37  0.93773 -114.32  0.18117  166.11
1090.090090  0.17736  164.09  0.93933 -114.52  0.93983 -114.63  0.17851  163.72
1093.093093  0.17424  161.49  0.94342 -114.96  0.94351 -114.82  0.17455  161.57
1096.096096  0.16993  159.58  0.94476 -115.12  0.94531 -115.21  0.16999  159.55
1099.099099  0.16769  156.95  0.94958 -115.44  0.94982 -115.40  0.16755  156.97
1102.102102  0.16332  154.32  0.95187 -115.88  0.95147 -115.87  0.16198  154.73
1105.105105  0.15881  152.18  0.95368 -116.21  0.95460 -116.24  0.15946  152.13
1108.108108  0.15462  149.62  0.95678 -116.54  0.95647 -116.54  0.15410  149.95
1111.111111  0.15045  147.06  0.95824 -116.96  0.95968 -116.97  0.15041  147.37
1114.114114  0.14656  144.76  0.96270 -117.37  0.96281 -117.27  0.14658  144.66
1117.117117  0.14205  141.84  0.96289 -117.68  0.96445 -117.78  0.14174  141.87
1120.120120  0.13683  139.12  0.96712 -118.14  0.96631 -118.10  0.13684  139.28
1123.123123  0.13248  136.38  0.96864 -118.53  0.96805 -118.52  0.13174  136.41
1126.126126  0.12784  133.44  0.96951 -118.96  0.97002 -118.97  0.12821  133.04
1129.129129  0.12273  129.70  0.97050 -119.26  0.97064 -119.26  0.12225  129.75
1132.132132  0.11867  126.49  0.97139 -119.82  0.97214 -119.86  0.11850  126.59
1135.135135  0.11269  123.17  0.97280 -120.24  0.97216 -120.21  0.11225  123.13
1138.138138  0.10847  119.63  0.97306 -120.71  0.97384 -120.76  0.10852  119.68
1141.141141  0.10373  115.97  0.97350 -121.21  0.97311 -121.18  0.10330  115.92
1144.144144  0.09832  112.26  0.97382 -121.52  0.97428 -121.63  0.09807  112.06
1147.147147  0.09303  107.92  0.97208 -122.03  0.97376 -121.98  0.09276  108.03
1150.150150  0.08909  103.75  0.97277 -122.40  0.97279 -122.45  0.08881  103.58
1153.153153  0.08476   99.20  0.97117 -122.88  0.97202 -122.87  0.08456   99.30
1156.156156  0.07968   94.52  0.97026 -123.36  0.97175 -123.35  0.07955   94.27
1159.159159  0.07518   89.01  0.96857 -123.84  0.96891 -123.76  0.07510   88.93
1162.162162  0.07178   82.33  0.96849 -124.20  0.96845 -124.21  0.07137   82.36
1165.165165  0.06810   76.62  0.96558 -124.57  0.96709 -124.63  0.06794   75.92
1168.168168  0.06620   68.76  0.96557 -124.90  0.96528 -124.84  0.06560   69.05
1171.171171  0.06375   61.60  0.96515 -125.27  0.96545 -125.34  0.06351   61.51
1174.174174  0.06222   54.53  0.96418 -125.75  0.96404 -125.65  0.06198   54.28
1177.177177  0.06078   47.31  0.96146 -126.07  0.96258 -126.10  0.06030   47.55
1180.180180  0.06026   38.88  0.95980 -126.49  0.95988 -126.43  0.06017   38.68
1183.183183  0.06012   31.04  0.95722 -126.66  0.95802 -126.70  0.05989   31.13
1186.186186  0.06069   24.12  0.95654 -127.10  0.95797 -127.10  0.06100   22.94
1189.189189  0.06076   16.19  0.95444 -127.45  0.95464 -127.42  0.06085   15.83
1192.192192  0.06346    8.38  0.95239 -127.71  0.95449 -127.74  0.06339    8.26
1195.195195  0.06532    2.50  0.95225 -127.98  0.95249 -128.00  0.06572    1.89
1198.198198  0.06781   -4.60  0.95180 -128.24  0.95111 -128.28  0.06800   -4.76
1201.201201  0.07178  -11.02  0.95187 -128.56  0.95197 -128.56  0.07156  -11.23
1204.204204  0.07413  -16.30  0.94881 -128.77  0.94948 -128.78  0.07448  -16.32
1207.207207  0.07713  -21.32  0.94755 -129.01  0.94962 -129.10  0.07776  -22.49
1210.210210  0.08140  -26.68  0.94971 -129.31  0.94865 -129.26  0.08129  -25.86
1213.213213  0.08585  -31.32  0.94909 -129.47  0.94822 -129.46  0.08482  -31.24
1216.216216  0.08978  -35.84  0.94864 -129.86  0.94841 -129.86  0.09012  -35.71
1219.219219  0.09266  -39.36  0.94778 -130.05  0.94924 -130.14  0.09370  -39.91
1222.222222  0.09651  -43.40  0.94797 -130.27  0.94845 -130.33  0.09594  -43.53
1225.225225  0.10000  -47.17  0.94870 -130.55  0.94914 -130.50  0.10073  -46.50
1228.228228  0.10355  -50.20  0.95031 -130.72  0.95067 -130.79  0.10447  -50.16
1231.231231  0.10705  -53.22  0.95069 -130.98  0.95051 -131.01  0.10766  -53.37
1234.234234  0.11123  -56.81  0.95045 -131.35  0.95106 -131.40  0.11127  -57.02
1237.237237  0.11318  -59.70  0.95135 -131.53  0.95122 -131.43  0.11386  -59.56
1240.240240  0.11707  -62.66  0.95286 -131.74  0.95388 -131.85  0.11754  -62.66
1243.243243  0.11979  -65.71  0.95517 -132.06  0.95555 -132.03  0.12000  -65.51
1246.246246  0.12302  -68.13  0.95554 -132.39  0.95675 -132.31  0.12328  -67.90
1249.249249  0.12546  -70.96  0.95686 -132.61  0.95629 -132.64  0.12553  -70.88
1252.252252  0.12761  -73.62  0.95767 -132.93  0.95763 -132.95  0.12760  -73.61
1255.255255  0.13079  -76.42  0.95943 -133.32  0.96045 -133.26  0.13038  -76.36
1258.258258  0.13253  -78.90  0.96179 -133.60  0.96092 -133.49  0.13260  -78.78
1261.261261  0.13512  -81.42  0.96236 -133.95  0.96297 -133.97  0.13512  -81.42
1264.264264  0.13648  -84.53  0.96705 -134.20  0.96773 -134.27  0.13656  -84.50
1267.267267  0.13801  -86.84  0.96711 -134.71  0.96611 -134.76  0.13823  -86.87
1270.270270  0.13950  -89.25  0.96760 -135.18  0.96761 -135.11  0.13932  -89.34
1273.273273  0.14032  -91.26  0.97011 -135.41  0.97075 -135.39  0.13981  -91.28
1276.276276  0.14085  -93.72  0.96990 -135.92  0.97054 -135.93  0.14070  -93.77
1279.279279  0.14175  -96.04  0.97308 -136.44  0.97215 -136.44  0.14171  -96.01
1282.282282  0.14183  -97.90  0.97363 -136.89  0.97434 -136.92  0.14183  -97.93
1285.285285  0.14172 -100.10  0.97474 -137.34  0.97546 -137.39  0.14182 -100.03
1288.288288  0.14142 -102.34  0.97530 -137.65  0.97482 -137.66  0.14110 -102.43
1291.291291  0.14038 -104.74  0.97686 -138.29  0.97749 -138.23  0.14014 -104.84
1294.294294  0.13937 -106.79  0.97573 -138.51  0.97659 -138.61  0.13897 -106.82
1297.297297  0.13779 -108.94  0.97756 -139.18  0.97738 -139.14  0.13796 -108.97
1300.300300  0.13609 -111.17  0.97877 -139.64  0.97777 -139.54  0.13594 -111.17
1303.303303  0.13526 -113.82  0.97769 -140.05  0.97900 -140.11  0.13532 -113.79
1306.306306  0.13397 -116.40  0.97769 -140.35  0.97894 -140.40  0.13355 -116.48
1309.309309  0.13235 -118.36  0.97936 -140.89  0.97911 -140.90  0.13244 -118.65
1312.312312  0.13013 -120.77  0.97816 -141.37  0.97895 -141.25  0.12977 -121.02
1315.315315  0.12602 -123.46  0.97682 -141.64  0.97723 -141.75  0.12598 -123.40
1318.318318  0.12340 -125.62  0.97647 -142.20  0.97723 -142.08  0.12395 -125.27
1321.321321  0.12022 -127.83  0.97495 -142.58  0.97497 -142.60  0.12042 -127.70
1324.324324  0.11672 -130.03  0.97431 -142.95  0.97512 -142.90  0.11695 -130.07
1327.327327  0.11343 -132.18  0.97289 -143.31  0.97424 -143.40  0.11345 -132.30
1330.330330  0.10914 -134.34  0.97178 -143.75  0.97305 -143.68  0.10895 -134.61
1333.333333  0.10395 -137.40  0.97135 -144.10  0.97024 -143.99  0.10397 -137.44
1336.336336  0.10011 -139.09  0.96832 -144.55  0.96966 -144.53  0.09973 -139.84
1339.339339  0.09497 -142.31  0.96871 -144.86  0.96998 -144.75  0.09505 -142.98
1342.342342  0.08963 -145.61  0.96733 -145.23  0.96666 -145.30  0.08972 -144.84
1345.345345  0.08415 -148.38  0.96585 -145.76  0.96646 -145.63  0.08497 -147.83
1348.348348  0.07899 -151.35  0.96304 -145.93  0.96297 -145.98  0.07876 -151.58
1351.351351  0.07373 -153.49  0.96188 -146.53  0.96312 -146.42  0.07390 -153.66
1354.354354  0.06755 -157.21  0.95919 -146.74  0.96001 -146.84  0.06786 -158.42
1357.357357  0.06141 -161.76  0.95828 -147.06  0.95955 -147.05  0.06215 -161.34
1360.360360  0.05582 -164.98  0.95770 -147.44  0.95923 -147.30  0.05609 -164.03
1363.363363  0.04957 -169.60  0.95693 -147.85  0.95808 -147.82  0.04932 -168.64
1366.366366  0.04327 -176.54  0.95681 -148.18  0.95632 -148.11  0.04382 -177.65
1369.369369  0.03736  178.03  0.95602 -148.44  0.95517 -148.51  0.03780  177.64
1372.372372  0.03104  169.18  0.95360 -148.93  0.95541 -148.96  0.03181  167.86
1375.375375  0.02583  156.50  0.95314 -149.21  0.95298 -149.30  0.02659  155.78
1378.378378  0.02085  140.10  0.95171 -149.60  0.95173 -149.64  0.02224  139.05
1381.381381  0.02087  117.88  0.95136 -150.05  0.95199 -149.86  0.02084  118.77
1384.384384  0.02088   92.46  0.94922 -150.23  0.94876 -150.14  0.02094   94.69
1387.387387  0.02434   73.80  0.94828 -150.63  0.94819 -150.51  0.02427   73.91
1390.390390  0.02950   58.57  0.94924 -150.89  0.94842 -150.96  0.02947   59.69
1393.393393  0.03576   47.38  0.94829 -151.05  0.94931 -151.09  0.03586   48.35
1396.396396  0.04304   40.59  0.94812 -151.50  0.94815 -151.57  0.04293   40.69
1399.399399  0.05108   32.85  0.94681 -151.95  0.94755 -151.89  0.05005   33.25
1402.402402  0.05944   28.13  0.94721 -152.26  0.94725 -152.26  0.05956   27.74
1405.405405  0.06782   25.04  0.94569 -152.57  0.94635 -152.52  0.06742   25.00
1408.408408  0.07578   20.94  0.94478 -152.85  0.94566 -152.86  0.07527   21.06
1411.411411  0.08343   17.44  0.94523 -153.24  0.94514 -153.32  0.08337   17.38
1414.414414  0.09163   13.63  0.94433 -153.69  0.94476 -153.58  0.09159   13.37
1417.417417  0.09947   10.35  0.94517 -154.04  0.94513 -154.14  0.09916   10.25
1420.420420  0.10792    7.34  0.94243 -154.48  0.94410 -154.45  0.10772    7.13
1423.423423  0.11646    4.70  0.94199 -154.95  0.94273 -154.91  0.11630    4.70
1426.426426  0.12426    2.08  0.94160 -155.37  0.94103 -155.25  0.12433    2.25
1429.429429  0.13286   -0.17  0.93938 -155.60  0.93998 -155.55  0.13308   -0.17
1432.432432  0.14149   -2.35  0.93710 -156.22  0.93802 -156.17  0.14136   -2.52
1435.435435  0.14967   -4.50  0.93617 -156.43  0.93597 -156.38  0.14998   -4.56
1438.438438  0.15770   -6.81  0.93466 -156.72  0.93535 -156.96  0.15726   -7.21
1441.441441  0.16558   -9.16  0.93269 -157.25  0.93411 -157.22  0.16620   -9.07
1444.444444  0.17371  -11.34  0.93119 -157.64  0.93154 -157.66  0.17318  -11.16
1447.447447  0.18121  -13.25  0.92902 -157.97  0.92921 -157.90  0.18170  -13.41
1450.450450  0.18973  -15.19  0.92667 -158.25  0.92633 -158.22  0.18930  -15.27
1453.453453  0.19834  -17.12  0.92446 -158.70  0.92492 -158.68  0.19771  -17.17
1456.456456  0.20531  -19.26  0.92184 -158.93  0.92201 -158.84  0.20507  -19.31
1459.459459  0.21307  -21.08  0.91977 -159.25  0.92085 -159.28  0.21317  -21.16
1462.462462  0.22065  -22.99  0.91661 -159.47  0.91794 -159.57  0.22078  -23.43
1465.465465  0.22730  -24.83  0.91416 -159.76  0.91511 -159.81  0.22640  -25.16
1468.468468  0.23383  -26.74  0.91204 -160.01  0.91190 -159.96  0.23387  -26.80
1471.471471  0.24029  -28.51  0.91065 -160.36  0.90991 -160.45  0.24064  -28.87
1474.474474  0.24623  -30.42  0.90862 -160.69  0.90954 -160.63  0.24735  -30.40
1477.477477  0.25310  -32.10  0.90496 -160.80  0.90520 -160.80  0.25270  -32.16
1480.480480  0.25939  -33.96  0.90305 -161.14  0.90329 -161.07  0.26008  -34.31
1483.483483  0.26526  -35.73  0.90140 -161.09  0.90088 -161.09  0.26493  -35.53
1486.486486  0.26931  -37.09  0.90058 -161.46  0.90017 -161.58  0.27082  -37.35
1489.489489  0.27460  -38.89  0.89711 -161.66  0.89853 -161.60  0.27592  -39.08
1492.492492  0.27991  -40.48  0.89795 -161.78  0.89872 -161.79  0.28150  -40.81
1495.495495  0.28430  -42.37  0.89556 -162.19  0.89527 -161.92  0.28573  -42.46
1498.498498  0.28947  -44.10  0.89462 -162.16  0.89537 -162.20  0.28958  -44.01
1501.501502  0.29315  -45.58  0.89375 -162.43  0.89368 -162.42  0.29393  -45.75
1504.504505  0.29727  -47.14  0.89218 -162.57  0.89178 -162.55  0.29816  -47.27
1507.507508  0.30169  -48.94  0.89249 -162.75  0.89237 -162.82  0.30159  -48.88
1510.510511  0.30531  -50.60  0.89238 -162.95  0.89224 -162.82  0.30503  -50.42
1513.513514  0.30853  -51.94  0.89182 -163.10  0.89237 -163.26  0.30944  -52.12
1516.516517  0.31147  -53.48  0.89129 -163.18  0.89207 -163.17  0.31154  -53.53
1519.519520  0.31406  -55.02  0.89112 -163.34  0.89227 -163.50  0.31448  -55.09
1522.522523  0.31607  -56.56  0.89216 -163.73  0.89332 -163.53  0.31626  -56.54
1525.525526  0.31767  -58.12  0.89405 -163.76  0.89455 -163.80  0.31787  -58.16
1528.528529  0.32058  -59.46  0.89350 -164.00  0.89399 -164.08  0.32124  -59.80
1531.531532  0.32191  -61.11  0.89624 -164.10  0.89638 -164.02  0.32192  -60.97
1534.534535  0.32346  -62.57  0.89640 -164.20  0.89698 -164.30  0.32359  -62.72
1537.537538  0.32512  -64.17  0.89944 -164.35  0.89938 -164.23  0.32527  -64.02
1540.540541  0.32580  -65.62  0.89981 -164.74  0.89995 -164.75  0.32547  -65.55
1543.543544  0.32688  -66.99  0.90300 -164.87  0.90298 -164.75  0.32693  -66.89
1546.546547  0.32796  -68.21  0.90545 -165.04  0.90505 -165.13  0.32783  -68.26
1549.549550  0.32813  -69.63  0.90850 -165.36  0.90797 -165.27  0.32754  -69.66
1552.552553  0.32615  -70.98  0.90884 -165.47  0.90968 -165.52  0.32681  -70.97
1555.555556  0.32608  -72.21  0.91300 -165.70  0.91214 -165.79  0.32718  -72.25
1558.558559  0.32507  -73.44  0.91490 -166.08  0.91593 -165.99  0.32472  -73.30
1561.561562  0.32333  -74.37  0.91709 -166.33  0.91838 -166.42  0.32434  -74.54
1564.564565  0.32253  -75.93  0.92079 -166.70  0.92184 -166.54  0.32160  -75.61
1567.567568  0.32055  -76.84  0.92519 -166.96  0.92549 -167.01  0.32158  -76.96
1570.570571  0.31787  -78.26  0.92642 -167.33  0.92786 -167.31  0.31848  -78.18
1573.573574  0.31615  -79.21  0.93041 -167.72  0.93058 -167.64  0.31667  -79.21
1576.576577  0.31251  -80.14  0.93385 -168.16  0.93503 -168.05  0.31424  -80.25
1579.579580  0.31065  -81.09  0.93643 -168.25  0.93664 -168.27  0.31113  -81.19
1582.582583  0.30810  -82.22  0.93928 -168.82  0.93960 -168.84  0.30679  -82.08
1585.585586  0.30452  -83.25  0.94302 -169.33  0.94313 -169.29  0.30462  -83.16
1588.588589  0.30171  -83.94  0.94539 -169.88  0.94535 -169.95  0.30124  -83.96
1591.591592  0.29744  -85.06  0.94787 -170.29  0.94870 -170.19  0.29720  -84.75
1594.594595  0.29248  -85.73  0.95022 -170.62  0.95116 -170.83  0.29218  -85.67
1597.597598  0.28863  -86.50  0.95255 -171.30  0.95320 -171.19  0.28847  -86.36
1600.600601  0.28397  -87.01  0.95430 -171.60  0.95475 -171.62  0.28417  -86.99
1603.603604  0.27837  -87.62  0.95779 -172.27  0.95714 -172.19  0.27857  -87.65
1606.606607  0.27400  -88.21  0.95734 -172.87  0.95862 -172.81  0.27346  -88.06
1609.609610  0.26904  -88.63  0.96032 -173.29  0.95990 -173.38  0.26859  -88.58
1612.612613  0.26352  -88.88  0.95995 -173.84  0.96011 -173.70  0.26300  -88.88
1615.615616  0.25743  -89.01  0.96112 -174.32  0.96216 -174.46  0.25694  -89.01
1618.618619  0.25300  -89.03  0.96278 -175.01  0.96344 -174.91  0.25270  -88.94
1621.621622  0.24781  -88.97  0.96435 -175.41  0.96525 -175.49  0.24761  -88.96
1624.624625  0.24079  -89.14  0.96416 -176.03  0.96496 -176.01  0.24104  -88.94
1627.627628  0.23611  -88.58  0.96456 -176.55  0.96472 -176.70  0.23623  -88.60
1630.630631  0.23033  -88.09  0.96454 -177.23  0.96568 -177.28  0.22982  -88.15
1633.633634  0.22474  -87.45  0.96411 -177.71  0.96583 -177.75  0.22480  -87.50
1636.636637  0.22042  -86.66  0.96445 -178.40  0.96424 -178.42  0.21993  -86.66
1639.639640  0.21520  -85.91  0.96107 -178.76  0.96261 -178.75  0.21441  -85.86
1642.642643  0.21115  -84.55  0.96161 -179.27  0.96238 -179.40  0.21099  -84.68
1645.645646  0.20762  -83.46  0.96009 -179.90  0.96197  179.98  0.20732  -83.23
1648.648649  0.20409  -82.06  0.95875  179.47  0.95964  179.34  0.20361  -81.89
1651.651652  0.20088  -80.26  0.95738  178.82  0.95880  178.85  0.20069  -80.14
1654.654655  0.19826  -78.67  0.95549  178.40  0.95468  178.17  0.19761  -78.46
1657.657658  0.19681  -76.68  0.95283  177.57  0.95350  177.71  0.19640  -76.62
1660.660661  0.19578  -74.35  0.95059  177.14  0.94967  177.29  0.19639  -74.26
1663.663664  0.19620  -72.45  0.94691  176.56  0.94793  176.54  0.19600  -72.50
1666.666667  0.19697  -70.39  0.94379  176.07  0.94376  176.22  0.19728  -70.45
1669.669670  0.19946  -68.47  0.94128  175.52  0.94052  175.54  0.19875  -68.27
1672.672673  0.20146  -66.36  0.93672  174.88  0.93720  174.95  0.20160  -66.48
1675.675676  0.20548  -64.53  0.93450  174.46  0.93542  174.47  0.20512  -64.57
1678.678679  0.20924  -62.88  0.92892  173.93  0.92999  174.06  0.20890  -62.84
1681.681682  0.21415  -61.08  0.92456  173.57  0.92580  173.54  0.21401  -61.03
1684.684685  0.22081  -59.57  0.92149  173.00  0.92209  172.99  0.22059  -59.54
1687.687688  0.22662  -58.26  0.91823  172.45  0.91806  172.60  0.22672  -58.13
1690.690691  0.23411  -57.06  0.91217  172.02  0.91245  171.97  0.23376  -56.95
1693.693694  0.24153  -55.98  0.90786  171.61  0.90898  171.73  0.24108  -55.84
1696.696697  0.24850  -55.12  0.90354  171.22  0.90392  171.11  0.24917  -55.27
1699.699700  0.25750  -54.75  0.89953  170.73  0.89992  170.82  0.25655  -54.47
1702.702703  0.26578  -54.37  0.89412  170.42  0.89502  170.42  0.26597  -54.34
1705.705706  0.27448  -53.55  0.88894  169.99  0.88929  169.98  0.27407  -53.62
1708.708709  0.28400  -53.43  0.88516  169.79  0.88733  169.69  0.28463  -53.71
1711.711712  0.29390  -53.30  0.87958  169.50  0.87943  169.37  0.29295  -53.34
1714.714715  0.30182  -53.42  0.87525  169.10  0.87507  169.27  0.30206  -53.28
1717.717718  0.31268  -53.78  0.87164  168.95  0.87152  168.85  0.31158  -53.76
1720.720721  0.32149  -54.08  0.86671  168.47  0.86709  168.61  0.32148  -53.92
1723.723724  0.33131  -54.24  0.86167  168.43  0.86203  168.34  0.33166  -54.39
1726.726727  0.34019  -54.72  0.85755  168.04  0.85693  168.12  0.33993  -54.69
1729.729730  0.34954  -55.27  0.85320  167.83  0.85410  167.95  0.34979  -55.11
1732.732733  0.35900  -55.67  0.85005  167.75  0.84993  167.73  0.35970  -55.73
1735.735736  0.36831  -56.36  0.84539  167.54  0.84559  167.61  0.36846  -56.26
1738.738739  0.37748  -56.92  0.84161  167.37  0.84239  167.25  0.37684  -56.84
1741.741742  0.38512  -57.62  0.83912  167.17  0.83886  167.35  0.38568  -57.51
