# MHz S MA R 50
!   freq        S11              S21              S12              S22       
1000.000000  0.19081 -143.43  0.95661 -109.57  0.95772 -109.55  0.19077 -143.65
1003.003003  0.19334 -144.79  0.95341 -109.86  0.95373 -109.83  0.19332 -144.78
1006.006006  0.19683 -146.18  0.95081 -110.38  0.95116 -110.40  0.19655 -146.32
1009.009009  0.19923 -147.67  0.94681 -110.65  0.94672 -110.57  0.19872 -147.76
1012.012012  0.20257 -149.05  0.94323 -110.89  0.94229 -110.92  0.20220 -149.33
1015.015015  0.20462 -150.49  0.94043 -111.23  0.94005 -111.25  0.20449 -150.68
1018.018018  0.20617 -152.28  0.93519 -111.49  0.93565 -111.40  0.20704 -152.16
1021.021021  0.20811 -153.43  0.93313 -111.80  0.93210 -111.86  0.20799 -153.67
1024.024024  0.20939 -154.87  0.93054 -111.98  0.92893 -111.94  0.20945 -155.00
1027.027027  0.21080 -156.46  0.92753 -112.08  0.92741 -112.13  0.21121 -156.72
1030.030030  0.21132 -158.46  0.92555 -112.47  0.92548 -112.38  0.21198 -158.51
1033.033033  0.21217 -159.84  0.92223 -112.49  0.92160 -112.46  0.21243 -159.69
1036.036036  0.21264 -161.48  0.92058 -112.65  0.92114 -112.63  0.21257 -161.49
1039.039039  0.21285 -163.10  0.91830 -112.81  0.91774 -112.88  0.21284 -163.20
1042.042042  0.21204 -164.78  0.91680 -113.05  0.91722 -113.03  0.21195 -164.72
1045.045045  0.21243 -166.59  0.91453 -113.12  0.91447 -113.05  0.21311 -166.46
1048.048048  0.21218 -168.16  0.91452 -113.27  0.91392 -113.29  0.21203 -168.18
1051.051051  0.21078 -169.85  0.91386 -113.44  0.91358 -113.43  0.21082 -169.82
1054.054054  0.21065 -171.46  0.91379 -113.46  0.91365 -113.52  0.21104 -171.52
1057.057057  0.20892 -173.59  0.91312 -113.60  0.91309 -113.57  0.20875 -173.50
1060.060060  0.20755 -175.35  0.91363 -113.73  0.91342 -113.74  0.20799 -175.21
1063.063063  0.20605 -176.87  0.91413 -113.74  0.91382 -113.83  0.20559 -177.08
1066.066066  0.20464 -178.84  0.91637 -113.94  0.91613 -113.82  0.20492 -178.62
1069.069069  0.20317  179.43  0.91637 -114.03  0.91740 -114.11  0.20270  179.21
1072.072072  0.19991  177.51  0.91791 -114.21  0.91865 -114.15  0.19996  177.36
1075.075075  0.19733  175.72  0.91980 -114.32  0.92012 -114.44  0.19819  175.37
1078.078078  0.19503  173.43  0.92314 -114.65  0.92319 -114.66  0.19517  173.68
1081.081081  0.19193  171.56  0.92564 -114.70  0.92464 -114.68  0.19151  171.77
1084.084084  0.18941  169.49  0.92651 -114.96  0.92714 -114.98  0.18866  169.58
1087.087087  0.18648  167.34  0.92943 -115.15  0.92972 -115.20  0.18519  167.65
1090.090090  0.18140  165.41  0.93195 -115.42  0.93223 -115.56  0.18194  165.06
1093.093093  0.17917  162.88  0.93549 -115.73  0.93493 -115.75  0.17891  162.83
1096.096096  0.17338  161.09  0.93697 -115.98  0.93767 -116.06  0.17477  160.70
1099.099099  0.17117  158.52  0.94221 -116.34  0.94100 -116.24  0.17006  158.77
1102.102102  0.16504  156.20  0.94413 -116.66  0.94397 -116.72  0.16474  156.32
1105.105105  0.16165  153.90  0.94626 -117.10  0.94563 -117.11  0.16136  153.96
1108.108108  0.15811  151.64  0.95102 -117.37  0.95046 -117.38  0.15731  151.75
1111.111111  0.15258  149.14  0.95117 -117.78  0.95111 -117.74  0.15220  149.27
1114.114114  0.14872  146.88  0.95510 -118.24  0.95489 -118.23  0.14867  146.92
1117.117117  0.14356  144.38  0.95668 -118.58  0.95543 -118.57  0.14390  144.16
1120.120120  0.13854  141.53  0.95894 -118.97  0.95830 -118.92  0.13848  141.57
1123.123123  0.13346  139.02  0.96046 -119.34  0.96107 -119.46  0.13379  138.93
1126.126126  0.12930  135.72  0.96276 -119.97  0.96182 -119.88  0.12891  136.07
1129.129129  0.12261  132.44  0.96380 -120.13  0.96322 -120.20  0.12290  132.69
1132.132132  0.11863  129.31  0.96500 -120.84  0.96528 -120.77  0.11889  129.44
1135.135135  0.11258  126.28  0.96530 -121.18  0.96550 -121.26  0.11239  126.22
1138.138138  0.10770  123.01  0.96635 -121.59  0.96635 -121.59  0.10776  122.82
1141.141141  0.10285  119.37  0.96679 -122.13  0.96701 -122.14  0.10269  119.42
1144.144144  0.09700  115.79  0.96752 -122.44  0.96707 -122.62  0.09692  115.94
1147.147147  0.09111  111.88  0.96526 -122.99  0.96592 -122.92  0.09106  111.78
1150.150150  0.08662  107.86  0.96558 -123.52  0.96308 -123.45  0.08690  107.83
1153.153153  0.08159  103.80  0.96559 -123.85  0.96525 -123.83  0.08178  103.83
1156.156156  0.07649   98.96  0.96392 -124.25  0.96472 -124.29  0.07648   98.91
1159.159159  0.07188   93.99  0.96169 -124.79  0.96100 -124.77  0.07189   94.00
1162.162162  0.06747   87.51  0.96142 -125.15  0.96201 -125.17  0.06716   87.23
1165.165165  0.06312   81.44  0.96049 -125.69  0.95973 -125.67  0.06282   81.30
1168.168168  0.06071   72.87  0.95854 -125.98  0.95829 -125.88  0.05958   73.68
1171.171171  0.05752   65.85  0.95682 -126.34  0.95822 -126.32  0.05640   65.78
1174.174174  0.05512   57.85  0.95575 -126.88  0.95696 -126.75  0.05443   58.12
1177.177177  0.05337   51.38  0.95479 -127.10  0.95503 -127.16  0.05150   49.31
1180.180180  0.05149   40.65  0.95182 -127.58  0.95308 -127.52  0.05097   39.98
1183.183183  0.05154   32.65  0.95040 -127.82  0.95058 -127.80  0.05136   32.08
1186.186186  0.05144   24.11  0.94967 -128.33  0.95042 -128.18  0.05192   22.56
1189.189189  0.05172   15.41  0.94644 -128.52  0.94732 -128.43  0.05246   14.83
1192.192192  0.05458    7.67  0.94549 -128.82  0.94728 -128.70  0.05512    6.04
1195.195195  0.05601   -0.89  0.94494 -129.17  0.94523 -128.96  0.05708   -1.55
1198.198198  0.05835   -8.62  0.94369 -129.53  0.94488 -129.37  0.05970  -10.16
1201.201201  0.06209  -14.04  0.94224 -129.72  0.94410 -129.65  0.06244  -14.99
1204.204204  0.06489  -20.15  0.94008 -129.94  0.94238 -129.82  0.06671  -21.73
1207.207207  0.06908  -26.84  0.94016 -130.32  0.94280 -130.15  0.06979  -27.92
1210.210210  0.07256  -31.92  0.94154 -130.42  0.94306 -130.45  0.07497  -32.50
1213.213213  0.07689  -37.01  0.93933 -130.86  0.94232 -130.60  0.07924  -37.64
1216.216216  0.08239  -41.65  0.94019 -131.10  0.94083 -130.96  0.08332  -41.53
1219.219219  0.08529  -45.82  0.93973 -131.34  0.94204 -131.20  0.08779  -45.69
1222.222222  0.09029  -49.86  0.94007 -131.56  0.94162 -131.34  0.09027  -49.31
1225.225225  0.09270  -52.38  0.94007 -131.65  0.94216 -131.67  0.09450  -52.66
1228.228228  0.09780  -56.31  0.94130 -132.14  0.94261 -131.95  0.09967  -56.56
1231.231231  0.10199  -59.49  0.94123 -132.20  0.94352 -132.21  0.10242  -59.29
1234.234234  0.10556  -63.09  0.94179 -132.55  0.94372 -132.49  0.10665  -62.98
1237.237237  0.10872  -66.18  0.94161 -132.76  0.94403 -132.66  0.10946  -65.76
1240.240240  0.11270  -69.07  0.94407 -133.00  0.94624 -132.98  0.11324  -68.63
1243.243243  0.11595  -71.49  0.94565 -133.30  0.94855 -133.19  0.11657  -71.39
1246.246246  0.11945  -74.20  0.94595 -133.59  0.94790 -133.55  0.12025  -73.75
1249.249249  0.12210  -77.20  0.94708 -133.88  0.94873 -133.71  0.12255  -76.74
1252.252252  0.12450  -79.85  0.94890 -134.08  0.94933 -134.11  0.12545  -79.45
1255.255255  0.12808  -82.24  0.94993 -134.56  0.95227 -134.41  0.12862  -82.16
1258.258258  0.13042  -84.85  0.95169 -134.75  0.95260 -134.73  0.13110  -84.73
1261.261261  0.13392  -87.84  0.95305 -135.19  0.95561 -135.22  0.13431  -87.50
1264.264264  0.13507  -90.50  0.95621 -135.60  0.95849 -135.53  0.13541  -90.15
1267.267267  0.13731  -92.76  0.95512 -135.95  0.95811 -136.03  0.13749  -92.45
1270.270270  0.13885  -95.11  0.95747 -136.49  0.95929 -136.37  0.13886  -94.88
1273.273273  0.13993  -97.08  0.95926 -136.70  0.96180 -136.66  0.13968  -96.91
1276.276276  0.14067  -99.41  0.95872 -137.25  0.96235 -137.16  0.14071  -99.16
1279.279279  0.14222 -101.68  0.96210 -137.69  0.96386 -137.65  0.14182 -101.39
1282.282282  0.14213 -103.52  0.96131 -138.18  0.96474 -138.14  0.14199 -103.26
1285.285285  0.14267 -105.70  0.96320 -138.58  0.96625 -138.64  0.14238 -105.42
1288.288288  0.14246 -107.93  0.96357 -138.99  0.96576 -138.92  0.14194 -107.71
1291.291291  0.14185 -110.39  0.96375 -139.57  0.96685 -139.40  0.14148 -110.21
1294.294294  0.14102 -112.40  0.96446 -139.85  0.96630 -139.83  0.14043 -112.19
1297.297297  0.14014 -114.62  0.96551 -140.39  0.96882 -140.41  0.13980 -114.47
1300.300300  0.13987 -117.41  0.96677 -140.83  0.96977 -140.89  0.13876 -116.95
1303.303303  0.13850 -119.51  0.96536 -141.34  0.96810 -141.19  0.13727 -119.32
1306.306306  0.13726 -122.38  0.96552 -141.66  0.96820 -141.66  0.13646 -122.18
1309.309309  0.13588 -124.35  0.96582 -142.24  0.96850 -142.16  0.13522 -124.12
1312.312312  0.13334 -126.64  0.96595 -142.55  0.96836 -142.47  0.13322 -126.29
1315.315315  0.12969 -128.97  0.96370 -143.01  0.96692 -142.94  0.12958 -128.63
1318.318318  0.12821 -131.22  0.96493 -143.42  0.96587 -143.26  0.12725 -130.68
1321.321321  0.12521 -133.87  0.96296 -143.87  0.96513 -143.77  0.12402 -133.45
1324.324324  0.12138 -136.14  0.96144 -144.21  0.96443 -143.95  0.12096 -135.75
1327.327327  0.11838 -138.43  0.95938 -144.58  0.96277 -144.56  0.11696 -138.09
1330.330330  0.11473 -140.56  0.95904 -144.97  0.96161 -144.78  0.11319 -140.50
1333.333333  0.10994 -143.57  0.95669 -145.33  0.95952 -145.19  0.10849 -143.42
1336.336336  0.10633 -145.67  0.95451 -145.78  0.95834 -145.73  0.10441 -145.57
1339.339339  0.10165 -148.65  0.95558 -145.93  0.95817 -145.96  0.10010 -148.61
1342.342342  0.09658 -151.58  0.95307 -146.49  0.95713 -146.42  0.09462 -152.37
1345.345345  0.09166 -155.28  0.95282 -146.95  0.95539 -146.80  0.09005 -155.04
1348.348348  0.08607 -158.78  0.94946 -147.21  0.95256 -147.21  0.08422 -158.62
1351.351351  0.08141 -161.06  0.94959 -147.71  0.95093 -147.54  0.07954 -160.05
1354.354354  0.07603 -166.04  0.94740 -147.97  0.95056 -147.94  0.07411 -165.97
1357.357357  0.06995 -168.75  0.94588 -148.40  0.94951 -148.29  0.06842 -169.46
1360.360360  0.06446 -172.47  0.94545 -148.44  0.94855 -148.47  0.06251 -171.70
1363.363363  0.05871 -178.14  0.94449 -149.09  0.94727 -148.96  0.05654 -176.88
1366.366366  0.05349  175.77  0.94398 -149.30  0.94776 -149.27  0.05212  174.67
1369.369369  0.04720  170.62  0.94246 -149.60  0.94642 -149.73  0.04647  168.29
1372.372372  0.04214  160.90  0.94260 -150.13  0.94448 -150.02  0.03953  162.74
1375.375375  0.03851  151.63  0.94058 -150.29  0.94446 -150.35  0.03649  150.89
1378.378378  0.03390  140.13  0.93937 -150.79  0.94200 -150.71  0.03149  138.59
1381.381381  0.03179  126.38  0.93958 -151.08  0.94121 -150.96  0.02836  124.66
1384.384384  0.02997  109.53  0.93747 -151.49  0.94126 -151.31  0.02951  106.57
1387.387387  0.03119   94.53  0.93771 -151.61  0.94001 -151.52  0.03001   90.40
1390.390390  0.03386   79.18  0.93776 -152.13  0.94042 -152.00  0.03305   75.04
1393.393393  0.03758   65.92  0.93767 -152.17  0.94046 -152.09  0.03697   63.17
1396.396396  0.04324   56.23  0.93765 -152.68  0.93940 -152.67  0.04337   53.26
1399.399399  0.04854   46.69  0.93640 -153.06  0.93870 -152.89  0.04914   43.36
1402.402402  0.05640   39.22  0.93594 -153.23  0.93863 -153.25  0.05691   36.68
1405.405405  0.06409   34.07  0.93485 -153.68  0.93731 -153.56  0.06424   31.28
1408.408408  0.07220   29.21  0.93422 -153.89  0.93688 -153.95  0.07268   27.50
1411.411411  0.07933   24.65  0.93544 -154.54  0.93710 -154.37  0.08024   22.77
1414.414414  0.08674   20.16  0.93552 -154.82  0.93644 -154.64  0.08802   18.44
1417.417417  0.09377   16.11  0.93565 -155.14  0.93721 -155.20  0.09484   14.78
1420.420420  0.10142   12.54  0.93333 -155.71  0.93593 -155.49  0.10321   11.17
1423.423423  0.11010    9.49  0.93140 -155.92  0.93459 -155.92  0.11148    8.14
1426.426426  0.11739    6.62  0.93119 -156.45  0.93440 -156.41  0.11885    5.34
1429.429429  0.12563    3.88  0.92953 -156.73  0.93247 -156.68  0.12713    2.77
1432.432432  0.13368    1.20  0.92823 -157.40  0.93036 -157.20  0.13532    0.02
1435.435435  0.14201   -1.19  0.92677 -157.44  0.92932 -157.58  0.14328   -2.27
1438.438438  0.14920   -3.94  0.92619 -158.17  0.92789 -158.05  0.15093   -5.00
1441.441441  0.15747   -6.29  0.92490 -158.24  0.92608 -158.29  0.15881   -7.30
1444.444444  0.16461   -8.76  0.92251 -158.73  0.92420 -158.77  0.16605   -9.47
1447.447447  0.17217  -10.87  0.92168 -159.03  0.92287 -158.94  0.17440  -11.80
1450.450450  0.17915  -13.33  0.91710 -159.39  0.91972 -159.46  0.18132  -13.96
1453.453453  0.18702  -15.74  0.91628 -159.92  0.91879 -159.88  0.18905  -16.05
1456.456456  0.19517  -17.38  0.91366 -160.04  0.91522 -160.00  0.19752  -17.88
1459.459459  0.20147  -19.78  0.91206 -160.55  0.91409 -160.40  0.20389  -20.15
1462.462462  0.20984  -21.53  0.90958 -160.63  0.91186 -160.64  0.21217  -22.18
1465.465465  0.21607  -23.61  0.90733 -161.01  0.90916 -160.92  0.21853  -24.02
1468.468468  0.22208  -25.61  0.90442 -161.28  0.90669 -161.28  0.22521  -26.06
1471.471471  0.22971  -27.46  0.90309 -161.67  0.90472 -161.64  0.23156  -28.07
1474.474474  0.23510  -29.40  0.90255 -161.96  0.90434 -161.68  0.23757  -29.69
1477.477477  0.24013  -31.47  0.89806 -162.09  0.90049 -161.95  0.24383  -31.83
1480.480480  0.24599  -33.41  0.89678 -162.43  0.89864 -162.30  0.24847  -33.64
1483.483483  0.25247  -34.97  0.89475 -162.40  0.89673 -162.20  0.25393  -34.95
1486.486486  0.25637  -36.64  0.89304 -162.82  0.89616 -162.74  0.26037  -36.99
1489.489489  0.26293  -38.69  0.89173 -163.01  0.89411 -162.86  0.26504  -38.64
1492.492492  0.26769  -40.41  0.89089 -163.21  0.89367 -163.07  0.27013  -40.69
1495.495495  0.27196  -42.24  0.88866 -163.35  0.89044 -163.23  0.27287  -41.97
1498.498498  0.27591  -43.95  0.88760 -163.52  0.88975 -163.47  0.27845  -43.95
1501.501502  0.28062  -45.74  0.88835 -163.88  0.88865 -163.73  0.28273  -45.60
1504.504505  0.28411  -47.14  0.88504 -163.94  0.88664 -163.88  0.28593  -47.21
1507.507508  0.28760  -48.90  0.88582 -164.20  0.88819 -164.02  0.29013  -49.02
1510.510511  0.29123  -50.81  0.88513 -164.29  0.88751 -164.25  0.29216  -50.46
1513.513514  0.29390  -52.08  0.88486 -164.58  0.88827 -164.54  0.29643  -52.15
1516.516517  0.29660  -53.82  0.88530 -164.71  0.88776 -164.56  0.29790  -53.64
1519.519520  0.30005  -55.40  0.88510 -164.82  0.88697 -164.87  0.30171  -55.41
1522.522523  0.30153  -57.03  0.88591 -165.20  0.88891 -164.91  0.30369  -56.93
1525.525526  0.30371  -58.45  0.88757 -165.10  0.89001 -165.19  0.30609  -58.57
1528.528529  0.30674  -60.25  0.88710 -165.51  0.88981 -165.43  0.30803  -60.05
1531.531532  0.30692  -61.57  0.88976 -165.46  0.89184 -165.49  0.30803  -61.51
1534.534535  0.30869  -63.25  0.89058 -165.80  0.89265 -165.79  0.31057  -63.24
1537.537538  0.30969  -64.93  0.89204 -165.73  0.89480 -165.82  0.31110  -64.65
1540.540541  0.31137  -66.36  0.89274 -166.21  0.89608 -166.16  0.31213  -66.08
1543.543544  0.31132  -67.84  0.89484 -166.36  0.89840 -166.19  0.31335  -67.37
1546.546547  0.31197  -69.15  0.89686 -166.52  0.89903 -166.45  0.31262  -68.99
1549.549550  0.31378  -70.63  0.90106 -166.91  0.90256 -166.71  0.31266  -70.29
1552.552553  0.31136  -72.07  0.90219 -167.05  0.90539 -166.94  0.31211  -71.83
1555.555556  0.31229  -73.23  0.90533 -167.17  0.90714 -167.17  0.31099  -72.79
1558.558559  0.30974  -74.44  0.90829 -167.54  0.91115 -167.57  0.31086  -74.36
1561.561562  0.30966  -75.70  0.91016 -167.96  0.91273 -167.88  0.31027  -75.45
1564.564565  0.30733  -77.02  0.91249 -168.17  0.91563 -168.02  0.30763  -76.62
1567.567568  0.30515  -78.03  0.91613 -168.58  0.91944 -168.60  0.30653  -77.89
1570.570571  0.30413  -79.55  0.91902 -168.91  0.92116 -168.75  0.30348  -79.22
1573.573574  0.30154  -80.41  0.92228 -169.29  0.92488 -169.19  0.30080  -80.02
1576.576577  0.29889  -81.50  0.92540 -169.71  0.92768 -169.66  0.29905  -81.18
1579.579580  0.29685  -82.51  0.92766 -169.89  0.93030 -169.80  0.29628  -82.12
1582.582583  0.29402  -83.50  0.93007 -170.56  0.93303 -170.47  0.29324  -83.14
1585.585586  0.28983  -84.60  0.93335 -170.91  0.93534 -170.87  0.28889  -84.28
1588.588589  0.28694  -85.38  0.93526 -171.47  0.93713 -171.37  0.28567  -84.92
1591.591592  0.28309  -86.40  0.93754 -171.93  0.94063 -171.70  0.28142  -85.91
1594.594595  0.27757  -87.09  0.94105 -172.28  0.94358 -172.28  0.27705  -86.78
1597.597598  0.27392  -87.88  0.94307 -172.78  0.94484 -172.67  0.27253  -87.43
1600.600601  0.26966  -88.39  0.94443 -173.27  0.94565 -173.33  0.26861  -88.02
1603.603604  0.26396  -88.97  0.94764 -173.83  0.94906 -173.74  0.26337  -88.64
1606.606607  0.25929  -89.52  0.94798 -174.37  0.95045 -174.45  0.25804  -89.02
1609.609610  0.25355  -90.01  0.94979 -174.97  0.95243 -174.96  0.25243  -89.52
1612.612613  0.24834  -90.29  0.95000 -175.33  0.95177 -175.37  0.24777  -89.67
1615.615616  0.24279  -90.30  0.95142 -175.99  0.95356 -175.90  0.24182  -89.74
1618.618619  0.23840  -90.23  0.95183 -176.44  0.95549 -176.47  0.23654  -89.64
1621.621622  0.23299  -90.19  0.95444 -177.00  0.95624 -176.98  0.23102  -89.55
1624.624625  0.22629  -90.08  0.95458 -177.56  0.95691 -177.42  0.22470  -89.55
1627.627628  0.22135  -89.66  0.95468 -178.01  0.95623 -178.15  0.22044  -89.03
1630.630631  0.21532  -89.06  0.95449 -178.80  0.95702 -178.82  0.21449  -88.43
1633.633634  0.20975  -88.32  0.95508 -179.18  0.95684 -179.30  0.20837  -87.67
1636.636637  0.20576  -87.25  0.95451  179.98  0.95563 -179.87  0.20452  -86.56
1639.639640  0.20049  -86.36  0.95225  179.66  0.95395  179.67  0.19997  -85.51
1642.642643  0.19710  -85.01  0.95214  179.19  0.95496  179.17  0.19566  -84.04
1645.645646  0.19366  -83.33  0.95131  178.57  0.95229  178.61  0.19296  -82.47
1648.648649  0.19021  -81.61  0.94852  177.95  0.95107  177.84  0.18933  -80.94
1651.651652  0.18720  -79.67  0.94686  177.11  0.95068  177.30  0.18698  -78.90
1654.654655  0.18483  -77.80  0.94468  176.84  0.94696  176.76  0.18469  -77.08
1657.657658  0.18311  -75.69  0.94339  176.27  0.94574  176.21  0.18371  -74.81
1660.660661  0.18329  -73.07  0.94007  175.79  0.94279  175.76  0.18363  -72.39
1663.663664  0.18377  -71.08  0.93700  175.03  0.94008  175.07  0.18417  -70.37
1666.666667  0.18525  -69.06  0.93447  174.54  0.93692  174.67  0.18658  -68.17
1669.669670  0.18823  -66.80  0.93085  173.98  0.93481  173.96  0.18887  -66.01
1672.672673  0.19076  -64.61  0.92869  173.54  0.92969  173.56  0.19133  -63.84
1675.675676  0.19507  -62.64  0.92567  173.06  0.92596  172.94  0.19624  -61.77
1678.678679  0.19911  -60.81  0.92168  172.49  0.92341  172.49  0.20075  -60.03
1681.681682  0.20516  -58.76  0.91600  172.11  0.91776  171.98  0.20645  -58.18
1684.684685  0.21209  -57.52  0.91344  171.43  0.91437  171.51  0.21377  -56.96
1687.687688  0.21816  -56.20  0.90927  171.13  0.91197  171.08  0.22023  -55.68
1690.690691  0.22639  -54.88  0.90401  170.44  0.90594  170.54  0.22789  -54.50
1693.693694  0.23400  -53.90  0.90034  170.24  0.90217  170.15  0.23597  -53.51
1696.696697  0.24239  -52.94  0.89488  169.72  0.89726  169.55  0.24403  -52.89
1699.699700  0.25067  -52.56  0.89184  169.30  0.89372  169.35  0.25172  -52.34
1702.702703  0.25940  -52.14  0.88628  169.06  0.88778  168.95  0.26171  -51.81
1705.705706  0.26841  -51.88  0.88133  168.45  0.88376  168.55  0.27049  -51.68
1708.708709  0.27789  -51.54  0.87745  168.26  0.87952  168.22  0.28007  -51.31
1711.711712  0.28716  -51.75  0.87290  167.78  0.87361  167.86  0.28860  -51.42
1714.714715  0.29688  -51.51  0.86789  167.60  0.86924  167.57  0.29841  -51.38
1717.717718  0.30618  -51.94  0.86363  167.36  0.86544  167.26  0.30831  -52.09
1720.720721  0.31589  -52.52  0.85983  166.97  0.86058  166.98  0.31781  -52.19
1723.723724  0.32574  -52.61  0.85463  166.80  0.85553  166.74  0.32751  -52.55
1726.726727  0.33483  -53.26  0.84992  166.31  0.85150  166.55  0.33689  -53.01
1729.729730  0.34523  -53.62  0.84648  166.42  0.84766  166.38  0.34619  -53.53
1732.732733  0.35384  -54.18  0.84282  166.03  0.84435  166.18  0.35577  -54.16
1735.735736  0.36287  -54.78  0.83902  165.97  0.84040  165.86  0.36475  -54.92
1738.738739  0.37098  -55.65  0.83547  165.61  0.83669  165.70  0.37304  -55.61
1741.741742  0.38004  -56.23  0.83189  165.68  0.83332  165.69  0.38148  -56.26
