# MHz S MA R 50
!   freq        S11       
1000.000000  0.18227 -143.88
1003.003003  0.18537 -145.23
1006.006006  0.18836 -146.64
1009.009009  0.19082 -147.93
1012.012012  0.19411 -149.53
1015.015015  0.19702 -151.02
1018.018018  0.19888 -152.54
1021.021021  0.20001 -154.08
1024.024024  0.20203 -155.43
1027.027027  0.20367 -157.05
1030.030030  0.20426 -158.71
1033.033033  0.20478 -160.36
1036.036036  0.20587 -162.09
1039.039039  0.20606 -163.75
1042.042042  0.20518 -165.37
1045.045045  0.20613 -166.99
1048.048048  0.20573 -168.77
1051.051051  0.20436 -170.35
1054.054054  0.20396 -172.21
1057.057057  0.20403 -174.04
1060.060060  0.20189 -176.10
1063.063063  0.20015 -177.80
1066.066066  0.19929 -179.52
1069.069069  0.19723  178.55
1072.072072  0.19515  176.38
1075.075075  0.19335  174.35
1078.078078  0.19013  172.69
1081.081081  0.18728  170.41
1084.084084  0.18444  168.48
1087.087087  0.18158  166.14
1090.090090  0.17752  164.13
1093.093093  0.17427  161.55
1096.096096  0.17142  159.34
1099.099099  0.16724  157.20
1102.102102  0.16173  154.86
1105.105105  0.15948  152.05
1108.108108  0.15518  149.84
1111.111111  0.15015  147.41
1114.114114  0.14688  144.91
1117.117117  0.14174  142.07
1120.120120  0.13694  139.42
1123.123123  0.13179  136.39
1126.126126  0.12805  132.95
1129.129129  0.12230  129.78
1132.132132  0.11819  126.77
1135.135135  0.11232  123.24
1138.138138  0.10789  119.77
1141.141141  0.10311  116.02
1144.144144  0.09787  112.20
1147.147147  0.09266  108.17
1150.150150  0.08858  103.81
1153.153153  0.08405   99.34
1156.156156  0.07986   94.11
1159.159159  0.07516   88.91
1162.162162  0.07124   82.16
1165.165165  0.06779   75.90
1168.168168  0.06544   68.49
1171.171171  0.06336   60.87
1174.174174  0.06203   53.58
1177.177177  0.05994   47.03
1180.180180  0.06028   38.25
1183.183183  0.06044   30.56
1186.186186  0.06046   23.18
1189.189189  0.06145   15.53
1192.192192  0.06338    8.34
1195.195195  0.06601    2.07
1198.198198  0.06852   -5.39
1201.201201  0.07137  -10.54
1204.204204  0.07417  -16.30
1207.207207  0.07776  -21.55
1210.210210  0.08202  -26.22
1213.213213  0.08528  -31.72
1216.216216  0.08935  -35.83
1219.219219  0.09278  -39.24
1222.222222  0.09700  -43.64
1225.225225  0.10025  -46.89
1228.228228  0.10443  -50.11
1231.231231  0.10803  -53.47
1234.234234  0.11032  -56.69
1237.237237  0.11381  -59.96
1240.240240  0.11709  -62.62
1243.243243  0.12037  -65.48
1246.246246  0.12248  -67.84
1249.249249  0.12569  -71.09
1252.252252  0.12814  -73.65
1255.255255  0.13089  -76.42
1258.258258  0.13308  -78.68
1261.261261  0.13484  -81.47
1264.264264  0.13641  -84.56
1267.267267  0.13822  -86.92
1270.270270  0.13943  -89.26
1273.273273  0.14025  -91.21
1276.276276  0.14070  -93.71
1279.279279  0.14188  -95.95
1282.282282  0.14154  -97.91
1285.285285  0.14169 -100.01
1288.288288  0.14121 -102.38
1291.291291  0.14019 -104.85
1294.294294  0.13907 -106.83
1297.297297  0.13753 -108.97
1300.300300  0.13638 -111.20
1303.303303  0.13479 -113.83
1306.306306  0.13338 -116.76
1309.309309  0.13234 -118.49
1312.312312  0.13009 -120.97
1315.315315  0.12585 -123.53
1318.318318  0.12370 -125.20
1321.321321  0.12029 -127.65
1324.324324  0.11688 -129.92
1327.327327  0.11335 -132.26
1330.330330  0.10927 -134.75
1333.333333  0.10370 -137.43
1336.336336  0.10028 -139.34
1339.339339  0.09472 -142.61
1342.342342  0.08981 -145.02
1345.345345  0.08482 -147.72
1348.348348  0.07932 -151.20
1351.351351  0.07407 -153.86
1354.354354  0.06794 -157.68
1357.357357  0.06180 -160.95
1360.360360  0.05568 -164.49
1363.363363  0.04976 -169.93
1366.366366  0.04406 -176.48
1369.369369  0.03705  178.75
1372.372372  0.03149  168.41
1375.375375  0.02747  154.52
1378.378378  0.02174  139.04
1381.381381  0.02092  118.74
1384.384384  0.02102   93.71
1387.387387  0.02423   73.24
1390.390390  0.02951   59.02
1393.393393  0.03566   48.96
1396.396396  0.04270   40.87
1399.399399  0.05007   33.38
1402.402402  0.05953   28.35
1405.405405  0.06742   25.08
1408.408408  0.07517   21.25
1411.411411  0.08356   17.37
1414.414414  0.09160   13.52
1417.417417  0.09881   10.40
1420.420420  0.10764    7.24
1423.423423  0.11636    4.77
1426.426426  0.12392    2.20
1429.429429  0.13278   -0.27
1432.432432  0.14103   -2.44
1435.435435  0.14973   -4.94
1438.438438  0.15727   -7.09
1441.441441  0.16570   -9.03
1444.444444  0.17328  -11.40
1447.447447  0.18104  -13.59
1450.450450  0.18935  -15.64
1453.453453  0.19792  -17.27
1456.456456  0.20488  -19.47
1459.459459  0.21261  -21.16
1462.462462  0.21991  -23.28
1465.465465  0.22677  -24.99
1468.468468  0.23414  -26.84
1471.471471  0.23999  -28.89
1474.474474  0.24743  -30.40
1477.477477  0.25330  -32.16
1480.480480  0.25997  -34.31
1483.483483  0.26521  -35.80
1486.486486  0.26984  -37.21
1489.489489  0.27534  -38.88
1492.492492  0.28155  -40.93
1495.495495  0.28543  -42.39
1498.498498  0.28923  -43.97
1501.501502  0.29465  -45.74
1504.504505  0.29792  -47.28
1507.507508  0.30186  -48.88
1510.510511  0.30572  -50.45
1513.513514  0.30948  -51.86
1516.516517  0.31073  -53.55
1519.519520  0.31375  -55.12
1522.522523  0.31604  -56.74
1525.525526  0.31927  -58.20
1528.528529  0.32060  -59.60
1531.531532  0.32177  -61.09
1534.534535  0.32410  -62.58
1537.537538  0.32580  -64.15
1540.540541  0.32665  -65.55
1543.543544  0.32779  -66.84
1546.546547  0.32710  -68.15
1549.549550  0.32742  -69.54
1552.552553  0.32791  -70.95
1555.555556  0.32720  -72.12
1558.558559  0.32552  -73.48
1561.561562  0.32392  -74.38
1564.564565  0.32231  -75.82
1567.567568  0.32068  -76.75
1570.570571  0.31851  -78.27
1573.573574  0.31588  -79.09
1576.576577  0.31360  -80.13
1579.579580  0.31096  -81.15
1582.582583  0.30744  -82.04
1585.585586  0.30509  -83.26
1588.588589  0.30149  -83.92
1591.591592  0.29733  -84.84
1594.594595  0.29243  -85.72
1597.597598  0.28864  -86.46
1600.600601  0.28442  -86.89
1603.603604  0.27827  -87.55
1606.606607  0.27412  -88.18
1609.609610  0.26815  -88.52
1612.612613  0.26320  -88.87
1615.615616  0.25738  -88.97
1618.618619  0.25293  -89.00
1621.621622  0.24735  -88.90
1624.624625  0.24059  -88.93
1627.627628  0.23620  -88.57
1630.630631  0.22954  -88.12
1633.633634  0.22470  -87.44
1636.636637  0.22037  -86.51
1639.639640  0.21478  -85.83
1642.642643  0.21101  -84.62
1645.645646  0.20737  -83.43
1648.648649  0.20322  -81.79
1651.651652  0.20063  -80.11
1654.654655  0.19758  -78.56
1657.657658  0.19629  -76.33
1660.660661  0.19526  -74.18
1663.663664  0.19577  -72.50
1666.666667  0.19700  -70.36
1669.669670  0.19896  -68.34
1672.672673  0.20197  -66.32
1675.675676  0.20474  -64.52
1678.678679  0.20852  -62.61
1681.681682  0.21409  -60.87
1684.684685  0.22032  -59.43
1687.687688  0.22635  -58.16
1690.690691  0.23400  -56.96
1693.693694  0.24045  -55.88
1696.696697  0.24886  -54.96
1699.699700  0.25688  -54.63
1702.702703  0.26596  -54.06
1705.705706  0.27415  -53.53
1708.708709  0.28439  -53.74
1711.711712  0.29322  -53.46
1714.714715  0.30189  -53.28
1717.717718  0.31177  -53.71
1720.720721  0.32129  -53.90
1723.723724  0.33165  -54.22
1726.726727  0.34081  -54.59
1729.729730  0.34923  -55.13
1732.732733  0.35900  -55.71
1735.735736  0.36837  -56.30
1738.738739  0.37674  -56.87
1741.741742  0.38544  -57.55
1744.744745  0.39393  -58.24
1747.747748  0.40297  -59.01
1750.750751  0.40993  -59.93
1753.753754  0.41837  -60.70
1756.756757  0.42552  -61.54
1759.759760  0.43196  -62.04
1762.762763  0.43987  -63.27
1765.765766  0.44664  -64.02
1768.768769  0.45294  -64.96
1771.771772  0.45937  -65.85
1774.774775  0.46559  -66.79
1777.777778  0.47162  -67.74
1780.780781  0.47644  -68.51
1783.783784  0.48131  -69.49
1786.786787  0.48716  -70.27
1789.789790  0.49121  -71.39
1792.792793  0.49595  -72.11
1795.795796  0.49867  -73.03
1798.798799  0.50196  -73.97
1801.801802  0.50531  -74.61
1804.804805  0.50917  -75.57
1807.807808  0.51190  -76.50
1810.810811  0.51405  -77.40
1813.813814  0.51713  -78.47
1816.816817  0.51785  -79.24
1819.819820  0.52089  -80.06
1822.822823  0.52165  -81.08
1825.825826  0.52353  -81.84
1828.828829  0.52465  -82.73
1831.831832  0.52453  -83.58
1834.834835  0.52525  -84.48
1837.837838  0.52519  -85.41
1840.840841  0.52553  -86.17
1843.843844  0.52513  -86.99
1846.846847  0.52420  -87.96
1849.849850  0.52320  -88.75
1852.852853  0.52272  -89.64
1855.855856  0.52173  -90.40
1858.858859  0.52011  -91.04
1861.861862  0.51794  -91.88
1864.864865  0.51552  -92.61
1867.867868  0.51403  -93.24
1870.870871  0.51017  -93.89
1873.873874  0.50755  -94.49
1876.876877  0.50381  -95.11
1879.879880  0.50090  -95.73
1882.882883  0.49719  -96.33
1885.885886  0.49174  -96.76
1888.888889  0.48878  -97.19
1891.891892  0.48542  -97.89
1894.894895  0.48061  -98.17
1897.897898  0.47626  -98.64
1900.900901  0.47203  -98.94
1903.903904  0.46654  -99.12
1906.906907  0.46142  -99.47
1909.909910  0.45787  -99.54
1912.912913  0.45256  -99.87
1915.915916  0.44658  -99.82
1918.918919  0.44250  -99.91
1921.921922  0.43724  -99.73
1924.924925  0.43284  -99.67
1927.927928  0.42755  -99.43
1930.930931  0.42350  -99.14
1933.933934  0.41864  -98.72
1936.936937  0.41560  -98.34
1939.939940  0.41089  -97.92
1942.942943  0.40859  -97.32
1945.945946  0.40644  -96.65
1948.948949  0.40310  -96.19
1951.951952  0.40099  -95.28
1954.954955  0.40102  -94.57
1957.957958  0.39979  -93.98
1960.960961  0.40032  -93.16
1963.963964  0.40182  -92.23
1966.966967  0.40178  -91.53
1969.969970  0.40431  -90.77
1972.972973  0.40650  -90.21
1975.975976  0.40974  -89.37
1978.978979  0.41378  -88.75
1981.981982  0.41967  -88.19
1984.984985  0.42301  -87.49
1987.987988  0.42755  -87.19
1990.990991  0.43386  -86.63
1993.993994  0.44003  -86.08
1996.996997  0.44623  -85.91
2000.000000  0.45234  -85.66
2003.003003  0.45957  -85.46
2006.006006  0.46709  -85.48
2009.009009  0.47579  -85.41
2012.012012  0.48354  -85.05
2015.015015  0.48901  -85.32
2018.018018  0.49827  -85.21
2021.021021  0.50513  -85.55
2024.024024  0.51189  -85.75
2027.027027  0.52039  -85.97
2030.030030  0.52824  -86.38
2033.033033  0.53413  -86.74
2036.036036  0.54095  -87.07
2039.039039  0.54895  -87.42
2042.042042  0.55418  -87.81
2045.045045  0.56218  -88.30
2048.048048  0.56765  -88.79
2051.051051  0.57397  -89.31
2054.054054  0.57804  -89.58
2057.057057  0.58450  -90.37
2060.060060  0.59046  -90.75
2063.063063  0.59547  -91.24
2066.066066  0.59983  -91.99
2069.069069  0.60328  -92.56
2072.072072  0.60990  -93.14
2075.075075  0.61313  -93.52
2078.078078  0.61799  -94.39
2081.081081  0.62001  -94.87
2084.084084  0.62452  -95.46
2087.087087  0.62605  -95.99
2090.090090  0.62914  -96.87
2093.093093  0.63234  -97.44
2096.096096  0.63418  -97.87
2099.099099  0.63773  -98.38
2102.102102  0.63733  -99.17
2105.105105  0.64193  -99.75
2108.108108  0.64240 -100.29
2111.111111  0.64465 -100.96
2114.114114  0.64667 -101.46
2117.117117  0.64813 -102.22
2120.120120  0.65042 -102.79
2123.123123  0.65123 -103.57
2126.126126  0.65257 -104.15
2129.129129  0.65406 -104.68
2132.132132  0.65279 -105.31
2135.135135  0.65419 -105.75
2138.138138  0.65282 -106.52
2141.141141  0.65359 -107.13
2144.144144  0.65165 -107.72
2147.147147  0.65235 -108.45
2150.150150  0.65045 -108.99
2153.153153  0.64913 -109.65
2156.156156  0.64647 -110.03
2159.159159  0.64626 -110.83
2162.162162  0.64286 -111.30
2165.165165  0.64110 -111.70
2168.168168  0.63861 -112.24
2171.171171  0.63607 -112.80
2174.174174  0.63255 -113.39
2177.177177  0.62923 -113.66
2180.180180  0.62550 -114.09
2183.183183  0.62319 -114.47
2186.186186  0.61982 -114.94
2189.189189  0.61545 -115.30
2192.192192  0.61039 -115.53
2195.195195  0.60663 -115.93
2198.198198  0.60211 -116.15
2201.201201  0.59833 -116.37
2204.204204  0.59433 -116.58
2207.207207  0.58854 -116.97
2210.210210  0.58501 -116.90
2213.213213  0.58103 -117.18
2216.216216  0.57629 -117.36
2219.219219  0.57161 -117.32
2222.222222  0.56777 -117.44
2225.225225  0.56181 -117.30
2228.228228  0.55811 -117.42
2231.231231  0.55385 -117.22
2234.234234  0.54945 -117.00
2237.237237  0.54609 -116.67
2240.240240  0.54158 -116.55
2243.243243  0.53871 -116.27
2246.246246  0.53575 -115.84
2249.249249  0.53428 -115.55
2252.252252  0.53152 -115.00
2255.255255  0.53002 -114.41
2258.258258  0.53036 -114.05
2261.261261  0.52985 -113.87
2264.264264  0.53011 -113.57
2267.267267  0.52979 -112.99
2270.270270  0.53152 -112.56
2273.273273  0.53214 -112.06
2276.276276  0.53457 -111.83
2279.279279  0.53670 -111.48
2282.282282  0.54006 -111.12
2285.285285  0.54291 -110.63
2288.288288  0.54648 -110.38
2291.291291  0.55155 -110.14
2294.294294  0.55507 -109.85
2297.297297  0.55993 -109.63
2300.300300  0.56468 -109.27
2303.303303  0.56974 -109.36
2306.306306  0.57472 -109.35
2309.309309  0.57977 -109.22
2312.312312  0.58575 -109.10
2315.315315  0.59027 -109.19
2318.318318  0.59737 -109.27
2321.321321  0.60257 -109.51
2324.324324  0.60801 -109.55
2327.327327  0.61312 -109.74
2330.330330  0.61912 -110.00
2333.333333  0.62413 -110.19
2336.336336  0.62884 -110.52
2339.339339  0.63454 -110.69
2342.342342  0.63917 -111.10
2345.345345  0.64428 -111.43
2348.348348  0.64805 -111.82
2351.351351  0.65369 -112.14
2354.354354  0.65666 -112.45
2357.357357  0.66128 -112.99
2360.360360  0.66573 -113.33
2363.363363  0.66776 -113.83
2366.366366  0.67280 -114.18
2369.369369  0.67681 -114.63
2372.372372  0.68043 -115.05
2375.375375  0.68172 -115.50
2378.378378  0.68397 -116.21
2381.381381  0.68566 -116.47
2384.384384  0.68842 -116.96
2387.387387  0.69029 -117.34
2390.390390  0.69111 -117.86
2393.393393  0.69421 -118.20
2396.396396  0.69529 -118.33
2399.399399  0.69788 -119.07
2402.402402  0.69925 -119.47
2405.405405  0.70045 -119.65
2408.408408  0.70453 -120.13
2411.411411  0.70448 -120.52
2414.414414  0.70785 -121.15
2417.417417  0.70868 -121.79
2420.420420  0.71198 -122.35
2423.423423  0.71019 -122.93
2426.426426  0.71228 -123.42
2429.429429  0.71246 -123.64
2432.432432  0.71354 -124.51
2435.435435  0.71255 -125.03
2438.438438  0.71157 -125.54
2441.441441  0.71218 -126.04
2444.444444  0.70847 -126.59
2447.447447  0.70907 -127.27
2450.450450  0.70720 -127.77
2453.453453  0.70706 -128.69
2456.456456  0.70321 -128.67
2459.459459  0.70026 -129.30
2462.462462  0.69788 -129.57
2465.465465  0.69605 -130.02
2468.468468  0.69115 -129.99
2471.471471  0.69121 -130.98
2474.474474  0.68754 -131.29
2477.477477  0.68336 -131.37
2480.480480  0.67987 -131.92
2483.483483  0.67729 -132.29
2486.486486  0.67383 -132.47
2489.489489  0.67064 -132.88
2492.492492  0.66621 -133.09
2495.495495  0.66209 -133.52
2498.498498  0.65729 -133.67
2501.501502  0.65515 -133.99
2504.504505  0.65050 -134.07
2507.507508  0.64467 -134.40
2510.510511  0.63932 -134.73
2513.513514  0.63494 -134.87
2516.516517  0.63076 -135.16
2519.519520  0.62599 -135.03
2522.522523  0.62253 -135.15
2525.525526  0.61782 -135.06
2528.528529  0.61235 -135.05
2531.531532  0.60656 -134.78
2534.534535  0.60272 -134.68
2537.537538  0.59917 -134.52
2540.540541  0.59522 -134.37
2543.543544  0.59262 -134.20
2546.546547  0.58883 -134.12
2549.549550  0.58712 -133.81
2552.552553  0.58466 -133.42
2555.555556  0.58318 -133.38
2558.558559  0.58239 -133.17
2561.561562  0.58076 -132.88
2564.564565  0.57901 -132.45
2567.567568  0.57892 -132.16
2570.570571  0.58008 -131.95
2573.573574  0.57870 -131.69
2576.576577  0.57996 -131.35
2579.579580  0.58102 -130.89
2582.582583  0.58193 -130.83
2585.585586  0.58429 -130.25
2588.588589  0.58660 -130.16
2591.591592  0.58881 -129.94
2594.594595  0.59076 -129.67
2597.597598  0.59429 -129.45
2600.600601  0.59809 -129.28
2603.603604  0.60136 -129.29
2606.606607  0.60545 -129.08
2609.609610  0.60934 -129.06
2612.612613  0.61335 -128.93
2615.615616  0.61711 -129.07
2618.618619  0.62165 -129.11
2621.621622  0.62642 -129.09
2624.624625  0.63110 -129.20
2627.627628  0.63499 -129.47
2630.630631  0.63983 -129.42
2633.633634  0.64350 -129.87
2636.636637  0.64779 -130.03
2639.639640  0.65175 -130.08
2642.642643  0.65639 -130.51
2645.645646  0.66250 -130.90
2648.648649  0.66370 -130.94
2651.651652  0.66766 -131.26
2654.654655  0.66974 -131.57
2657.657658  0.67579 -132.09
2660.660661  0.67672 -132.34
2663.663664  0.67830 -132.76
2666.666667  0.68026 -132.82
2669.669670  0.68422 -133.62
2672.672673  0.68538 -133.77
2675.675676  0.68520 -134.07
2678.678679  0.68721 -134.64
2681.681682  0.68710 -134.98
2684.684685  0.69043 -135.15
2687.687688  0.69050 -135.27
2690.690691  0.69306 -135.64
2693.693694  0.69671 -135.86
2696.696697  0.69909 -136.32
2699.699700  0.70264 -136.72
2702.702703  0.70586 -136.90
2705.705706  0.70762 -137.56
2708.708709  0.71036 -137.81
2711.711712  0.71240 -138.63
2714.714715  0.71572 -139.14
2717.717718  0.71479 -139.70
2720.720721  0.71516 -140.16
2723.723724  0.71319 -140.66
2726.726727  0.71495 -141.29
2729.729730  0.71145 -141.84
2732.732733  0.71164 -142.23
2735.735736  0.71059 -142.84
2738.738739  0.70928 -143.32
2741.741742  0.70701 -143.90
2744.744745  0.70436 -143.95
2747.747748  0.70209 -145.03
2750.750751  0.70070 -145.37
2753.753754  0.69847 -145.94
2756.756757  0.69491 -146.06
2759.759760  0.69382 -146.78
2762.762763  0.68992 -146.75
2765.765766  0.68807 -147.65
2768.768769  0.68733 -147.71
2771.771772  0.68163 -148.14
2774.774775  0.67679 -148.66
2777.777778  0.67406 -148.43
2780.780781  0.66880 -149.50
2783.783784  0.66876 -149.83
2786.786787  0.66541 -150.10
2789.789790  0.65915 -150.38
2792.792793  0.65571 -150.98
2795.795796  0.65218 -151.05
2798.798799  0.64775 -151.52
2801.801802  0.64274 -151.72
2804.804805  0.63743 -152.09
2807.807808  0.63233 -152.21
2810.810811  0.62814 -152.57
2813.813814  0.62361 -152.85
2816.816817  0.61912 -152.74
2819.819820  0.61357 -152.96
2822.822823  0.60927 -152.81
2825.825826  0.60374 -152.85
2828.828829  0.59714 -153.01
2831.831832  0.59260 -152.78
2834.834835  0.58874 -152.87
2837.837838  0.58490 -152.77
2840.840841  0.58225 -152.87
2843.843844  0.57942 -152.50
2846.846847  0.57454 -152.56
2849.849850  0.57170 -152.53
2852.852853  0.56891 -152.01
2855.855856  0.56537 -152.16
2858.858859  0.56321 -151.60
2861.861862  0.56017 -151.41
2864.864865  0.55970 -151.06
2867.867868  0.55728 -150.93
2870.870871  0.55573 -150.66
2873.873874  0.55440 -150.33
2876.876877  0.55336 -150.20
2879.879880  0.55173 -149.77
2882.882883  0.55280 -149.73
2885.885886  0.55312 -149.42
2888.888889  0.55405 -149.15
2891.891892  0.55601 -148.77
2894.894895  0.55634 -148.41
2897.897898  0.55755 -148.39
2900.900901  0.55926 -148.10
2903.903904  0.56158 -148.11
2906.906907  0.56423 -148.01
2909.909910  0.56675 -147.87
2912.912913  0.56963 -147.70
2915.915916  0.57178 -147.68
2918.918919  0.57504 -147.65
2921.921922  0.57729 -147.93
2924.924925  0.58165 -147.83
2927.927928  0.58342 -147.90
2930.930931  0.58635 -148.05
2933.933934  0.58970 -148.16
2936.936937  0.59192 -148.31
2939.939940  0.59595 -148.66
2942.942943  0.59769 -148.99
2945.945946  0.60061 -149.26
2948.948949  0.60366 -149.46
2951.951952  0.60667 -149.79
2954.954955  0.60782 -149.91
2957.957958  0.61070 -150.58
2960.960961  0.61188 -150.77
2963.963964  0.61291 -151.44
2966.966967  0.61376 -151.33
2969.969970  0.61465 -151.80
2972.972973  0.61667 -152.26
2975.975976  0.61519 -152.32
2978.978979  0.61594 -152.76
2981.981982  0.61831 -152.83
2984.984985  0.61939 -153.00
2987.987988  0.62252 -153.52
2990.990991  0.62448 -153.83
2993.993994  0.62732 -154.05
2996.996997  0.62822 -154.71
3000.000000  0.63280 -155.50
3003.003003  0.63263 -155.98
3006.006006  0.63335 -156.26
3009.009009  0.63074 -157.23
3012.012012  0.63365 -157.76
3015.015015  0.63283 -158.24
3018.018018  0.63221 -159.20
3021.021021  0.62789 -159.78
3024.024024  0.62689 -160.17
3027.027027  0.62535 -160.65
3030.030030  0.62235 -161.28
3033.033033  0.62040 -162.04
3036.036036  0.61774 -162.49
3039.039039  0.61507 -163.20
3042.042042  0.60960 -163.57
3045.045045  0.60855 -163.59
3048.048048  0.60392 -164.57
3051.051051  0.60081 -165.25
3054.054054  0.59946 -165.92
3057.057057  0.59377 -166.31
3060.060060  0.58973 -167.11
3063.063063  0.58570 -167.16
