# MHz S MA R 50
!   freq        S11       
1000.000000  0.15648 -141.00
1003.003003  0.15843 -143.13
1006.006006  0.15987 -144.82
1009.009009  0.16182 -146.59
1012.012012  0.16417 -148.66
1015.015015  0.16481 -150.55
1018.018018  0.16597 -152.22
1021.021021  0.16651 -154.52
1024.024024  0.16686 -156.37
1027.027027  0.16705 -158.02
1030.030030  0.16674 -160.21
1033.033033  0.16652 -162.08
1036.036036  0.16618 -164.47
1039.039039  0.16534 -166.28
1042.042042  0.16352 -168.33
1045.045045  0.16392 -170.62
1048.048048  0.16176 -172.86
1051.051051  0.15975 -175.11
1054.054054  0.15798 -176.85
1057.057057  0.15550 -179.65
1060.060060  0.15429  177.86
1063.063063  0.15204  175.23
1066.066066  0.14951  173.25
1069.069069  0.14657  170.47
1072.072072  0.14379  167.75
1075.075075  0.14051  165.17
1078.078078  0.13721  162.58
1081.081081  0.13275  159.92
1084.084084  0.12916  156.62
1087.087087  0.12612  153.66
1090.090090  0.12312  150.24
1093.093093  0.11910  146.75
1096.096096  0.11494  143.18
1099.099099  0.11185  140.01
1102.102102  0.10765  135.80
1105.105105  0.10495  131.78
1108.108108  0.10072  127.80
1111.111111  0.09710  123.14
1114.114114  0.09488  118.19
1117.117117  0.09120  112.82
1120.120120  0.08859  107.79
1123.123123  0.08555  102.36
1126.126126  0.08405   97.20
1129.129129  0.08106   90.97
1132.132132  0.07999   85.51
1135.135135  0.07792   78.78
1138.138138  0.07711   72.58
1141.141141  0.07685   66.17
1144.144144  0.07692   59.20
1147.147147  0.07710   52.18
1150.150150  0.07934   45.89
1153.153153  0.08125   39.48
1156.156156  0.08348   33.33
1159.159159  0.08557   28.13
1162.162162  0.09020   22.13
1165.165165  0.09263   17.31
1168.168168  0.09590   11.94
1171.171171  0.09925    7.43
1174.174174  0.10185    3.01
1177.177177  0.10527   -0.57
1180.180180  0.10984   -5.50
1183.183183  0.11447   -9.24
1186.186186  0.11824  -12.52
1189.189189  0.12091  -15.95
1192.192192  0.12636  -19.68
1195.195195  0.12932  -22.50
1198.198198  0.13383  -25.87
1201.201201  0.13805  -29.01
1204.204204  0.14087  -31.88
1207.207207  0.14530  -34.83
1210.210210  0.14761  -37.14
1213.213213  0.15096  -39.94
1216.216216  0.15492  -42.61
1219.219219  0.15715  -45.18
1222.222222  0.15999  -47.76
1225.225225  0.16220  -49.71
1228.228228  0.16593  -52.72
1231.231231  0.16712  -54.88
1234.234234  0.16999  -57.15
1237.237237  0.17095  -59.33
1240.240240  0.17119  -61.33
1243.243243  0.17307  -63.43
1246.246246  0.17394  -65.50
1249.249249  0.17554  -67.94
1252.252252  0.17625  -69.62
1255.255255  0.17674  -71.37
1258.258258  0.17725  -73.52
1261.261261  0.17683  -75.65
1264.264264  0.17603  -77.64
1267.267267  0.17561  -79.98
1270.270270  0.17503  -81.96
1273.273273  0.17355  -83.44
1276.276276  0.17214  -85.41
1279.279279  0.17047  -87.27
1282.282282  0.16852  -88.64
1285.285285  0.16618  -90.39
1288.288288  0.16363  -92.02
1291.291291  0.16043  -93.76
1294.294294  0.15726  -95.05
1297.297297  0.15371  -96.61
1300.300300  0.14987  -97.99
1303.303303  0.14558  -99.50
1306.306306  0.14101 -101.16
1309.309309  0.13791 -102.68
1312.312312  0.13311 -104.28
1315.315315  0.12761 -105.47
1318.318318  0.12291 -106.39
1321.321321  0.11738 -107.70
1324.324324  0.11159 -108.66
1327.327327  0.10627 -108.99
1330.330330  0.09999 -109.07
1333.333333  0.09285 -109.68
1336.336336  0.08755 -109.04
1339.339339  0.08047 -108.98
1342.342342  0.07421 -107.39
1345.345345  0.06775 -105.77
1348.348348  0.06072 -103.32
1351.351351  0.05498  -99.61
1354.354354  0.04902  -95.23
1357.357357  0.04519  -86.66
1360.360360  0.04192  -78.94
1363.363363  0.04108  -67.29
1366.366366  0.03951  -56.56
1369.369369  0.04252  -46.61
1372.372372  0.04790  -37.50
1375.375375  0.05206  -30.18
1378.378378  0.05995  -25.18
1381.381381  0.06690  -21.88
1384.384384  0.07467  -18.98
1387.387387  0.08369  -17.02
1390.390390  0.09267  -15.84
1393.393393  0.10164  -15.37
1396.396396  0.11115  -14.77
1399.399399  0.12071  -15.07
1402.402402  0.13022  -15.16
1405.405405  0.13917  -15.90
1408.408408  0.14860  -16.66
1411.411411  0.15796  -17.64
1414.414414  0.16764  -18.97
1417.417417  0.17667  -20.07
1420.420420  0.18597  -21.13
1423.423423  0.19607  -22.07
1426.426426  0.20468  -23.74
1429.429429  0.21454  -24.74
1432.432432  0.22205  -25.90
1435.435435  0.23073  -26.95
1438.438438  0.23869  -28.55
1441.441441  0.24867  -29.75
1444.444444  0.25606  -31.09
1447.447447  0.26385  -32.72
1450.450450  0.27205  -33.97
1453.453453  0.27943  -35.42
1456.456456  0.28709  -36.57
1459.459459  0.29336  -38.23
1462.462462  0.30117  -39.52
1465.465465  0.30714  -40.96
1468.468468  0.31409  -42.37
1471.471471  0.32075  -43.70
1474.474474  0.32666  -45.30
1477.477477  0.33158  -46.63
1480.480480  0.33691  -48.02
1483.483483  0.34263  -49.32
1486.486486  0.34733  -50.74
1489.489489  0.35159  -52.08
1492.492492  0.35540  -53.14
1495.495495  0.35957  -54.78
1498.498498  0.36338  -56.04
1501.501502  0.36747  -57.48
1504.504505  0.37004  -58.61
1507.507508  0.37242  -60.01
1510.510511  0.37535  -61.08
1513.513514  0.37862  -62.52
1516.516517  0.37907  -63.67
1519.519520  0.38237  -64.97
1522.522523  0.38228  -66.24
1525.525526  0.38395  -67.49
1528.528529  0.38499  -68.85
1531.531532  0.38469  -69.85
1534.534535  0.38672  -71.31
1537.537538  0.38546  -72.48
1540.540541  0.38608  -73.51
1543.543544  0.38557  -74.59
1546.546547  0.38520  -75.75
1549.549550  0.38553  -76.91
1552.552553  0.38412  -77.92
1555.555556  0.38162  -78.96
1558.558559  0.37890  -79.82
1561.561562  0.37759  -80.69
1564.564565  0.37514  -81.73
1567.567568  0.37153  -82.48
1570.570571  0.36820  -83.60
1573.573574  0.36547  -84.30
1576.576577  0.36141  -85.19
1579.579580  0.35741  -85.71
1582.582583  0.35338  -86.47
1585.585586  0.34921  -87.17
1588.588589  0.34497  -87.66
1591.591592  0.34046  -88.30
1594.594595  0.33457  -88.79
1597.597598  0.33087  -89.24
1600.600601  0.32562  -89.42
1603.603604  0.31976  -89.57
1606.606607  0.31444  -89.80
1609.609610  0.30923  -89.91
1612.612613  0.30405  -89.84
1615.615616  0.29840  -89.63
1618.618619  0.29379  -89.18
1621.621622  0.28898  -88.80
1624.624625  0.28274  -88.58
1627.627628  0.27932  -87.90
1630.630631  0.27427  -87.06
1633.633634  0.26950  -86.19
1636.636637  0.26671  -85.14
1639.639640  0.26287  -84.20
1642.642643  0.26132  -82.81
1645.645646  0.25972  -81.74
1648.648649  0.25788  -80.26
1651.651652  0.25729  -78.76
1654.654655  0.25748  -77.29
1657.657658  0.25789  -76.06
1660.660661  0.25937  -74.17
1663.663664  0.26219  -72.87
1666.666667  0.26574  -71.63
1669.669670  0.27005  -70.31
1672.672673  0.27380  -69.25
1675.675676  0.28000  -67.73
1678.678679  0.28430  -66.89
1681.681682  0.29182  -65.99
1684.684685  0.29926  -65.17
1687.687688  0.30540  -64.72
1690.690691  0.31475  -64.30
1693.693694  0.32257  -63.74
1696.696697  0.33126  -63.63
1699.699700  0.33987  -63.46
1702.702703  0.34832  -63.34
1705.705706  0.35651  -63.44
1708.708709  0.36694  -63.51
1711.711712  0.37594  -63.70
1714.714715  0.38369  -63.75
1717.717718  0.39319  -64.14
1720.720721  0.40108  -64.67
1723.723724  0.41150  -65.03
1726.726727  0.41878  -65.42
1729.729730  0.42748  -66.01
1732.732733  0.43699  -66.59
1735.735736  0.44513  -67.17
1738.738739  0.45322  -68.08
1741.741742  0.46054  -68.48
1744.744745  0.46827  -69.20
1747.747748  0.47568  -70.04
1750.750751  0.48130  -70.71
1753.753754  0.48728  -71.54
1756.756757  0.49498  -72.31
1759.759760  0.49926  -73.15
1762.762763  0.50610  -73.87
1765.765766  0.51118  -74.70
1768.768769  0.51758  -75.58
1771.771772  0.52176  -76.47
1774.774775  0.52611  -77.26
1777.777778  0.53130  -78.07
1780.780781  0.53584  -78.77
1783.783784  0.53908  -79.71
1786.786787  0.54426  -80.53
1789.789790  0.54667  -81.24
1792.792793  0.54947  -81.99
1795.795796  0.55228  -82.95
1798.798799  0.55561  -83.68
1801.801802  0.55626  -84.44
1804.804805  0.55872  -85.01
1807.807808  0.56285  -85.90
1810.810811  0.56336  -86.70
1813.813814  0.56402  -87.66
1816.816817  0.56398  -88.47
1819.819820  0.56584  -89.16
1822.822823  0.56515  -90.14
1825.825826  0.56644  -90.66
1828.828829  0.56525  -91.70
1831.831832  0.56529  -92.30
1834.834835  0.56503  -93.26
1837.837838  0.56345  -93.91
1840.840841  0.56328  -94.56
1843.843844  0.56210  -95.33
1846.846847  0.56053  -96.17
1849.849850  0.55801  -96.78
1852.852853  0.55687  -97.46
1855.855856  0.55466  -98.26
1858.858859  0.55282  -98.83
1861.861862  0.54860  -99.43
1864.864865  0.54576 -100.12
1867.867868  0.54242 -100.52
1870.870871  0.53919 -101.17
1873.873874  0.53565 -101.65
1876.876877  0.53129 -102.30
1879.879880  0.52608 -102.66
1882.882883  0.52247 -103.27
1885.885886  0.51702 -103.48
1888.888889  0.51366 -103.81
1891.891892  0.50859 -104.31
1894.894895  0.50359 -104.40
1897.897898  0.49859 -104.78
1900.900901  0.49347 -104.83
1903.903904  0.48884 -105.06
1906.906907  0.48299 -105.15
1909.909910  0.47918 -105.12
1912.912913  0.47291 -105.07
1915.915916  0.46923 -105.08
1918.918919  0.46402 -105.00
1921.921922  0.45996 -104.61
1924.924925  0.45505 -104.45
1927.927928  0.45095 -103.88
1930.930931  0.44696 -103.65
1933.933934  0.44427 -103.03
1936.936937  0.44182 -102.58
1939.939940  0.43769 -101.99
1942.942943  0.43576 -101.38
1945.945946  0.43541 -100.64
1948.948949  0.43419 -100.18
1951.951952  0.43305  -99.27
1954.954955  0.43390  -98.56
1957.957958  0.43533  -98.03
1960.960961  0.43737  -97.12
1963.963964  0.43962  -96.54
1966.966967  0.44283  -95.99
1969.969970  0.44612  -95.31
1972.972973  0.44982  -94.88
1975.975976  0.45388  -94.31
1978.978979  0.45910  -93.99
1981.981982  0.46493  -93.45
1984.984985  0.47083  -93.13
1987.987988  0.47585  -92.77
1990.990991  0.48194  -92.74
1993.993994  0.48840  -92.40
1996.996997  0.49576  -92.29
2000.000000  0.50341  -92.53
2003.003003  0.51044  -92.16
2006.006006  0.51683  -92.49
2009.009009  0.52459  -92.48
2012.012012  0.53082  -92.53
2015.015015  0.53878  -92.79
2018.018018  0.54615  -92.92
2021.021021  0.55242  -93.43
2024.024024  0.55907  -93.62
2027.027027  0.56503  -94.02
2030.030030  0.57258  -94.28
2033.033033  0.57693  -94.86
2036.036036  0.58347  -95.17
2039.039039  0.59098  -95.79
2042.042042  0.59539  -96.03
2045.045045  0.60239  -96.70
2048.048048  0.60821  -97.11
2051.051051  0.61262  -97.75
2054.054054  0.61614  -98.16
2057.057057  0.62144  -98.69
2060.060060  0.62626  -99.24
2063.063063  0.62902  -99.81
2066.066066  0.63334 -100.32
2069.069069  0.63594 -101.14
2072.072072  0.64062 -101.62
2075.075075  0.64276 -102.29
2078.078078  0.64673 -102.81
2081.081081  0.64805 -103.30
2084.084084  0.65126 -104.01
2087.087087  0.65189 -104.58
2090.090090  0.65450 -105.22
2093.093093  0.65623 -105.95
2096.096096  0.65638 -106.48
2099.099099  0.65845 -106.83
2102.102102  0.65915 -107.78
2105.105105  0.66114 -108.06
2108.108108  0.66204 -108.82
2111.111111  0.66370 -109.19
2114.114114  0.66482 -109.98
2117.117117  0.66488 -110.56
2120.120120  0.66693 -111.05
2123.123123  0.66643 -111.82
2126.126126  0.66658 -112.41
2129.129129  0.66608 -113.11
2132.132132  0.66572 -113.76
2135.135135  0.66515 -114.21
2138.138138  0.66248 -114.78
2141.141141  0.66265 -115.47
2144.144144  0.66001 -116.08
2147.147147  0.65913 -116.53
2150.150150  0.65667 -117.28
2153.153153  0.65285 -117.64
2156.156156  0.65191 -118.22
2159.159159  0.64906 -118.76
2162.162162  0.64479 -119.46
2165.165165  0.64117 -119.54
2168.168168  0.63907 -120.25
2171.171171  0.63490 -120.75
2174.174174  0.63038 -121.09
2177.177177  0.62609 -121.64
2180.180180  0.62158 -121.71
2183.183183  0.61813 -122.28
2186.186186  0.61453 -122.39
2189.189189  0.60950 -122.86
2192.192192  0.60452 -123.01
2195.195195  0.59808 -123.39
2198.198198  0.59360 -123.65
2201.201201  0.58987 -123.43
2204.204204  0.58401 -123.98
2207.207207  0.57828 -123.79
2210.210210  0.57347 -124.01
2213.213213  0.56856 -123.83
2216.216216  0.56395 -123.93
2219.219219  0.55925 -123.80
2222.222222  0.55435 -123.71
2225.225225  0.54946 -123.67
2228.228228  0.54591 -123.34
2231.231231  0.54144 -123.25
2234.234234  0.53737 -122.68
2237.237237  0.53484 -122.39
2240.240240  0.53083 -121.88
2243.243243  0.52930 -121.78
2246.246246  0.52664 -121.21
2249.249249  0.52462 -120.60
2252.252252  0.52471 -120.25
2255.255255  0.52295 -119.50
2258.258258  0.52535 -119.24
2261.261261  0.52661 -118.79
2264.264264  0.52714 -118.37
2267.267267  0.52893 -117.84
2270.270270  0.53223 -117.40
2273.273273  0.53445 -116.87
2276.276276  0.53786 -116.70
2279.279279  0.54056 -116.32
2282.282282  0.54546 -116.07
2285.285285  0.54943 -115.87
2288.288288  0.55420 -115.67
2291.291291  0.55912 -115.50
2294.294294  0.56364 -115.25
2297.297297  0.56930 -115.17
2300.300300  0.57395 -115.16
2303.303303  0.57970 -115.22
2306.306306  0.58554 -115.37
2309.309309  0.59077 -115.12
2312.312312  0.59627 -115.40
2315.315315  0.60143 -115.52
2318.318318  0.60815 -115.73
2321.321321  0.61286 -116.06
2324.324324  0.61815 -116.15
2327.327327  0.62313 -116.56
2330.330330  0.62727 -116.87
2333.333333  0.63255 -117.17
2336.336336  0.63842 -117.44
2339.339339  0.64126 -117.76
2342.342342  0.64676 -118.38
2345.345345  0.65151 -118.77
2348.348348  0.65385 -119.28
2351.351351  0.65916 -119.46
2354.354354  0.66115 -120.03
2357.357357  0.66525 -120.41
2360.360360  0.66942 -120.90
2363.363363  0.67087 -121.48
2366.366366  0.67524 -121.89
2369.369369  0.67723 -122.37
2372.372372  0.67904 -122.76
2375.375375  0.68004 -123.47
2378.378378  0.68151 -124.10
2381.381381  0.68259 -124.45
2384.384384  0.68369 -125.22
2387.387387  0.68572 -125.37
2390.390390  0.68632 -125.92
2393.393393  0.68811 -126.48
2396.396396  0.68775 -126.75
2399.399399  0.69047 -127.26
2402.402402  0.69146 -127.87
2405.405405  0.69136 -127.96
2408.408408  0.69447 -128.71
2411.411411  0.69454 -128.87
2414.414414  0.69564 -129.86
2417.417417  0.69579 -130.27
2420.420420  0.69757 -131.24
2423.423423  0.69546 -131.72
2426.426426  0.69646 -132.42
2429.429429  0.69528 -132.98
2432.432432  0.69394 -133.34
2435.435435  0.69153 -134.14
2438.438438  0.68965 -134.40
2441.441441  0.68827 -135.06
2444.444444  0.68531 -135.54
2447.447447  0.68214 -136.27
2450.450450  0.68099 -137.13
2453.453453  0.67720 -137.32
2456.456456  0.67351 -137.89
2459.459459  0.66975 -138.44
2462.462462  0.66594 -138.76
2465.465465  0.66250 -139.10
2468.468468  0.65734 -139.51
2471.471471  0.65299 -139.92
2474.474474  0.64844 -140.46
2477.477477  0.64526 -140.91
2480.480480  0.63942 -141.09
2483.483483  0.63504 -141.68
2486.486486  0.63089 -141.94
2489.489489  0.62603 -142.32
2492.492492  0.61818 -142.31
2495.495495  0.61525 -142.55
2498.498498  0.60779 -142.80
2501.501502  0.60333 -143.05
2504.504505  0.59796 -143.36
2507.507508  0.59094 -143.17
2510.510511  0.58591 -143.35
2513.513514  0.57994 -143.37
2516.516517  0.57471 -143.33
2519.519520  0.56826 -143.29
2522.522523  0.56438 -143.11
2525.525526  0.55806 -143.10
2528.528529  0.55358 -142.98
2531.531532  0.54845 -142.81
2534.534535  0.54401 -142.34
2537.537538  0.53830 -141.94
2540.540541  0.53608 -141.55
2543.543544  0.53252 -141.30
2546.546547  0.53053 -140.90
2549.549550  0.52923 -140.36
2552.552553  0.52705 -140.26
2555.555556  0.52588 -139.71
2558.558559  0.52571 -139.27
2561.561562  0.52681 -138.67
2564.564565  0.52641 -138.38
2567.567568  0.52679 -137.90
2570.570571  0.52942 -137.57
2573.573574  0.52950 -137.29
2576.576577  0.53321 -136.73
2579.579580  0.53537 -136.53
2582.582583  0.53727 -136.05
2585.585586  0.54111 -135.71
2588.588589  0.54470 -135.59
2591.591592  0.54880 -135.52
2594.594595  0.55205 -135.40
2597.597598  0.55600 -135.05
2600.600601  0.56015 -135.12
2603.603604  0.56466 -135.16
2606.606607  0.56874 -135.13
2609.609610  0.57486 -134.99
2612.612613  0.57846 -135.18
2615.615616  0.58277 -135.44
2618.618619  0.58814 -135.54
2621.621622  0.59273 -135.67
2624.624625  0.59753 -135.88
2627.627628  0.60131 -136.29
2630.630631  0.60563 -136.42
2633.633634  0.60914 -137.01
2636.636637  0.61410 -137.38
2639.639640  0.61768 -137.52
2642.642643  0.62148 -138.19
2645.645646  0.62710 -138.50
2648.648649  0.62865 -138.89
2651.651652  0.63303 -139.10
2654.654655  0.63343 -139.80
2657.657658  0.63874 -140.30
2660.660661  0.63948 -140.84
2663.663664  0.64046 -141.20
2666.666667  0.64148 -141.57
2669.669670  0.64392 -142.30
2672.672673  0.64251 -142.66
2675.675676  0.64348 -143.18
2678.678679  0.64439 -143.61
2681.681682  0.64510 -144.21
2684.684685  0.64619 -144.63
2687.687688  0.64547 -144.79
2690.690691  0.64777 -145.52
2693.693694  0.64903 -145.76
2696.696697  0.65104 -146.42
2699.699700  0.65357 -146.60
2702.702703  0.65454 -147.36
2705.705706  0.65486 -148.03
2708.708709  0.65616 -148.71
2711.711712  0.65593 -149.40
2714.714715  0.65502 -149.97
2717.717718  0.65440 -150.59
2720.720721  0.65122 -151.42
2723.723724  0.65027 -151.93
2726.726727  0.64724 -152.71
2729.729730  0.64442 -153.69
2732.732733  0.64179 -153.79
2735.735736  0.63788 -154.69
2738.738739  0.63527 -155.34
2741.741742  0.63200 -156.21
2744.744745  0.62774 -156.05
2747.747748  0.62523 -157.23
2750.750751  0.62034 -157.87
2753.753754  0.61452 -158.47
2756.756757  0.61147 -158.82
2759.759760  0.60669 -159.20
2762.762763  0.60220 -159.67
2765.765766  0.59630 -160.15
2768.768769  0.59293 -160.83
2771.771772  0.58638 -161.35
2774.774775  0.57888 -161.73
2777.777778  0.57469 -161.99
2780.780781  0.56734 -162.31
2783.783784  0.56297 -163.16
2786.786787  0.55535 -163.32
2789.789790  0.54726 -163.96
2792.792793  0.54253 -164.21
2795.795796  0.53691 -164.53
2798.798799  0.52930 -164.87
2801.801802  0.52143 -164.93
2804.804805  0.51528 -165.52
2807.807808  0.50718 -164.96
2810.810811  0.50187 -165.63
2813.813814  0.49456 -165.54
2816.816817  0.48740 -165.54
2819.819820  0.48005 -165.38
2822.822823  0.47463 -165.10
2825.825826  0.46868 -165.02
2828.828829  0.46014 -164.70
2831.831832  0.45488 -164.31
2834.834835  0.45002 -163.99
2837.837838  0.44558 -163.54
2840.840841  0.44163 -163.22
2843.843844  0.43768 -162.68
2846.846847  0.43512 -162.26
2849.849850  0.43134 -161.42
2852.852853  0.42825 -161.08
2855.855856  0.42653 -160.52
2858.858859  0.42407 -160.07
2861.861862  0.42249 -158.89
2864.864865  0.42222 -158.50
2867.867868  0.42067 -158.02
2870.870871  0.42132 -157.73
2873.873874  0.42166 -156.78
2876.876877  0.42207 -156.54
2879.879880  0.42340 -156.06
2882.882883  0.42530 -155.48
2885.885886  0.42736 -155.50
2888.888889  0.42963 -154.92
2891.891892  0.43291 -154.68
2894.894895  0.43484 -154.39
2897.897898  0.43828 -154.32
2900.900901  0.44115 -154.13
2903.903904  0.44458 -154.13
2906.906907  0.44853 -154.27
2909.909910  0.45154 -154.10
2912.912913  0.45522 -154.26
2915.915916  0.45776 -154.26
2918.918919  0.46101 -154.48
2921.921922  0.46448 -154.93
2924.924925  0.46803 -155.00
2927.927928  0.47046 -155.41
2930.930931  0.47420 -155.79
2933.933934  0.47624 -156.17
2936.936937  0.47838 -156.49
2939.939940  0.48109 -157.09
2942.942943  0.48361 -157.62
2945.945946  0.48534 -158.23
2948.948949  0.48717 -158.82
2951.951952  0.48897 -159.20
2954.954955  0.48904 -159.81
2957.957958  0.49087 -160.60
2960.960961  0.49012 -161.21
2963.963964  0.49164 -161.85
2966.966967  0.49015 -162.38
2969.969970  0.49019 -162.90
2972.972973  0.48979 -163.95
2975.975976  0.48780 -164.24
2978.978979  0.48638 -164.73
2981.981982  0.48613 -165.56
2984.984985  0.48546 -165.68
2987.987988  0.48558 -166.53
2990.990991  0.48382 -167.11
2993.993994  0.48355 -167.69
2996.996997  0.48137 -169.04
3000.000000  0.48173 -169.55
3003.003003  0.47879 -170.69
3006.006006  0.47598 -171.26
3009.009009  0.47247 -172.30
3012.012012  0.47086 -172.90
3015.015015  0.46658 -174.13
3018.018018  0.46271 -175.05
3021.021021  0.45626 -176.12
3024.024024  0.45079 -177.01
3027.027027  0.44787 -177.57
3030.030030  0.44017 -179.09
3033.033033  0.43598 -179.71
3036.036036  0.43002  179.48
3039.039039  0.42461  178.90
3042.042042  0.41513  178.19
3045.045045  0.41094  177.29
3048.048048  0.40173  176.34
3051.051051  0.39607  174.94
3054.054054  0.39008  174.45
3057.057057  0.38030  173.58
3060.060060  0.37245  172.94
3063.063063  0.36484  171.85
