# MHz S MA R 50
!   freq        S11              S21              S12              S22       
1000.000000  0.15800 -139.66  0.97320 -114.15  0.97399 -114.07  0.15801 -139.64
1003.003003  0.15953 -141.32  0.96972 -114.45  0.97042 -114.48  0.15933 -141.38
1006.006006  0.16112 -143.41  0.96725 -115.02  0.96782 -114.94  0.16134 -143.29
1009.009009  0.16304 -145.16  0.96439 -115.24  0.96422 -115.23  0.16300 -145.16
1012.012012  0.16532 -146.94  0.96029 -115.57  0.96115 -115.55  0.16431 -147.11
1015.015015  0.16616 -149.17  0.95841 -115.92  0.95821 -115.87  0.16630 -149.47
1018.018018  0.16757 -150.56  0.95417 -116.15  0.95498 -116.21  0.16765 -151.12
1021.021021  0.16814 -153.04  0.95180 -116.57  0.95199 -116.56  0.16765 -153.17
1024.024024  0.16827 -154.77  0.94911 -116.72  0.95021 -116.73  0.16858 -154.71
1027.027027  0.16840 -156.78  0.94724 -117.01  0.94852 -116.93  0.16892 -156.78
1030.030030  0.16811 -158.73  0.94536 -117.22  0.94703 -117.15  0.16854 -158.83
1033.033033  0.16743 -161.20  0.94306 -117.41  0.94360 -117.36  0.16761 -160.66
1036.036036  0.16691 -162.97  0.94240 -117.58  0.94331 -117.61  0.16714 -163.28
1039.039039  0.16562 -165.22  0.93980 -117.86  0.94081 -117.85  0.16602 -165.05
1042.042042  0.16457 -167.55  0.93957 -118.12  0.94021 -118.03  0.16401 -167.28
1045.045045  0.16378 -169.27  0.93770 -118.17  0.93840 -118.18  0.16462 -169.53
1048.048048  0.16264 -171.68  0.93727 -118.44  0.93841 -118.43  0.16316 -172.02
1051.051051  0.15954 -173.60  0.93687 -118.66  0.93737 -118.67  0.15932 -173.75
1054.054054  0.15796 -176.06  0.93633 -118.80  0.93844 -118.87  0.15870 -176.23
1057.057057  0.15705 -179.06  0.93775 -119.00  0.93840 -118.93  0.15699 -178.79
1060.060060  0.15389  179.12  0.93743 -119.20  0.93760 -119.21  0.15360  179.28
1063.063063  0.15173  176.28  0.93910 -119.34  0.93961 -119.37  0.15141  176.24
1066.066066  0.15006  173.95  0.94076 -119.59  0.94112 -119.56  0.14902  174.37
1069.069069  0.14552  171.71  0.94058 -119.80  0.94240 -119.80  0.14632  171.25
1072.072072  0.14261  168.92  0.94203 -120.05  0.94296 -119.97  0.14312  168.84
1075.075075  0.13954  166.00  0.94399 -120.24  0.94562 -120.31  0.14006  166.13
1078.078078  0.13710  163.16  0.94704 -120.57  0.94744 -120.53  0.13647  163.71
1081.081081  0.13206  160.10  0.94909 -120.78  0.94943 -120.82  0.13274  160.40
1084.084084  0.12853  157.11  0.95023 -121.14  0.95135 -121.11  0.12915  157.39
1087.087087  0.12489  154.33  0.95256 -121.33  0.95321 -121.38  0.12472  154.07
1090.090090  0.12144  150.51  0.95503 -121.72  0.95591 -121.77  0.12174  150.71
1093.093093  0.11820  147.15  0.95797 -122.03  0.95832 -122.13  0.11741  147.16
1096.096096  0.11423  143.69  0.95831 -122.54  0.95883 -122.41  0.11425  144.00
1099.099099  0.11099  140.13  0.96205 -122.79  0.96253 -122.78  0.11035  140.32
1102.102102  0.10702  135.80  0.96418 -123.35  0.96464 -123.22  0.10621  135.95
1105.105105  0.10332  131.63  0.96629 -123.65  0.96566 -123.68  0.10345  131.95
1108.108108  0.09955  127.54  0.96835 -124.13  0.96980 -124.04  0.09919  127.67
1111.111111  0.09649  122.49  0.96849 -124.57  0.96934 -124.36  0.09552  122.58
1114.114114  0.09426  117.13  0.97225 -124.97  0.97114 -124.99  0.09359  117.23
1117.117117  0.09078  111.89  0.97228 -125.36  0.97212 -125.33  0.09010  111.95
1120.120120  0.08755  106.63  0.97247 -125.74  0.97414 -125.79  0.08722  106.73
1123.123123  0.08521  101.25  0.97372 -126.32  0.97367 -126.24  0.08458  101.25
1126.126126  0.08371   95.83  0.97370 -126.74  0.97448 -126.74  0.08324   95.69
1129.129129  0.08106   89.54  0.97362 -127.14  0.97358 -127.08  0.08048   89.39
1132.132132  0.08034   83.79  0.97268 -127.69  0.97411 -127.66  0.07979   83.77
1135.135135  0.07862   77.10  0.97297 -128.14  0.97372 -128.09  0.07795   76.94
1138.138138  0.07832   70.84  0.97247 -128.58  0.97323 -128.52  0.07790   70.69
1141.141141  0.07831   64.57  0.97172 -129.06  0.97240 -129.03  0.07773   64.15
1144.144144  0.07813   57.82  0.97137 -129.51  0.97033 -129.48  0.07765   57.37
1147.147147  0.07973   50.36  0.96983 -129.89  0.97078 -129.93  0.07871   50.38
1150.150150  0.08175   44.19  0.96914 -130.42  0.96728 -130.27  0.08149   44.08
1153.153153  0.08432   38.46  0.96646 -130.76  0.96610 -130.73  0.08343   38.35
1156.156156  0.08717   32.58  0.96564 -131.18  0.96489 -131.18  0.08670   32.33
1159.159159  0.08899   27.13  0.96012 -131.50  0.96343 -131.57  0.08968   26.29
1162.162162  0.09385   21.26  0.96026 -131.99  0.96157 -132.04  0.09309   21.31
1165.165165  0.09574   16.64  0.95765 -132.39  0.95868 -132.35  0.09639   16.00
1168.168168  0.10052   12.02  0.95563 -132.58  0.95666 -132.66  0.10023   11.94
1171.171171  0.10309    6.91  0.95510 -133.08  0.95457 -132.96  0.10326    7.51
1174.174174  0.10687    3.62  0.95261 -133.40  0.95308 -133.33  0.10682    2.63
1177.177177  0.11013   -0.39  0.95077 -133.66  0.95169 -133.69  0.10993   -0.76
1180.180180  0.11422   -4.46  0.94931 -134.02  0.94960 -134.00  0.11418   -4.93
1183.183183  0.11877   -8.59  0.94517 -134.24  0.94666 -134.22  0.11853   -8.20
1186.186186  0.12297  -12.42  0.94516 -134.62  0.94561 -134.55  0.12321  -11.81
1189.189189  0.12650  -15.50  0.94295 -134.87  0.94246 -134.82  0.12624  -15.79
1192.192192  0.13105  -18.36  0.94151 -135.21  0.94214 -135.08  0.13101  -18.69
1195.195195  0.13478  -22.12  0.94040 -135.36  0.94154 -135.32  0.13508  -21.81
1198.198198  0.13842  -25.05  0.94004 -135.64  0.93940 -135.61  0.13827  -25.42
1201.201201  0.14220  -27.68  0.93956 -135.82  0.94085 -135.82  0.14407  -27.97
1204.204204  0.14635  -30.68  0.93766 -136.10  0.93847 -136.09  0.14587  -30.78
1207.207207  0.15034  -33.88  0.93756 -136.46  0.93704 -136.30  0.14937  -33.72
1210.210210  0.15348  -36.27  0.93843 -136.53  0.93864 -136.61  0.15352  -36.49
1213.213213  0.15716  -39.39  0.93822 -136.79  0.93769 -136.70  0.15642  -38.95
1216.216216  0.16030  -41.41  0.93737 -137.08  0.93819 -137.18  0.15985  -41.50
1219.219219  0.16269  -44.07  0.93850 -137.31  0.93906 -137.25  0.16393  -44.47
1222.222222  0.16510  -46.63  0.93872 -137.49  0.93963 -137.48  0.16516  -46.68
1225.225225  0.16732  -48.57  0.93980 -137.70  0.93956 -137.68  0.16821  -49.08
1228.228228  0.17053  -51.33  0.94137 -137.92  0.94209 -137.90  0.17124  -51.40
1231.231231  0.17273  -53.56  0.94266 -138.20  0.94284 -138.18  0.17266  -53.70
1234.234234  0.17471  -55.98  0.94246 -138.49  0.94279 -138.49  0.17492  -56.08
1237.237237  0.17562  -57.86  0.94449 -138.56  0.94389 -138.62  0.17534  -58.04
1240.240240  0.17744  -60.31  0.94655 -138.97  0.94689 -138.82  0.17604  -60.16
1243.243243  0.17696  -62.08  0.94766 -139.13  0.94956 -139.16  0.17876  -62.35
1246.246246  0.17894  -64.07  0.94956 -139.47  0.95086 -139.47  0.18052  -64.32
1249.249249  0.17938  -66.43  0.94984 -139.68  0.95225 -139.70  0.18067  -66.35
1252.252252  0.17998  -68.52  0.95251 -140.08  0.95369 -140.08  0.18058  -68.34
1255.255255  0.18164  -70.36  0.95453 -140.46  0.95534 -140.31  0.18136  -70.36
1258.258258  0.18144  -72.25  0.95676 -140.76  0.95849 -140.69  0.18208  -72.24
1261.261261  0.18208  -74.21  0.95946 -141.24  0.95993 -141.13  0.18173  -74.06
1264.264264  0.17973  -76.30  0.96409 -141.35  0.96434 -141.54  0.18004  -76.32
1267.267267  0.17972  -78.42  0.96512 -142.04  0.96490 -141.92  0.17976  -78.30
1270.270270  0.17893  -80.61  0.96620 -142.39  0.96638 -142.30  0.17911  -80.61
1273.273273  0.17774  -82.19  0.96913 -142.81  0.97012 -142.69  0.17771  -82.16
1276.276276  0.17573  -84.08  0.97045 -143.24  0.97077 -143.14  0.17590  -84.08
1279.279279  0.17443  -85.79  0.97290 -143.70  0.97301 -143.67  0.17453  -85.90
1282.282282  0.17228  -87.31  0.97385 -144.19  0.97435 -144.14  0.17220  -87.34
1285.285285  0.16992  -88.96  0.97623 -144.64  0.97734 -144.68  0.16995  -89.10
1288.288288  0.16738  -90.62  0.97571 -145.01  0.97714 -145.00  0.16730  -90.66
1291.291291  0.16381  -92.34  0.97847 -145.72  0.97866 -145.60  0.16405  -92.45
1294.294294  0.16087  -93.54  0.97884 -146.06  0.97944 -145.95  0.16105  -93.62
1297.297297  0.15691  -95.05  0.98187 -146.66  0.98145 -146.63  0.15713  -95.19
1300.300300  0.15314  -96.54  0.98250 -147.16  0.98316 -147.09  0.15322  -96.64
1303.303303  0.14895  -97.95  0.98205 -147.44  0.98244 -147.53  0.14862  -98.03
1306.306306  0.14427  -99.54  0.98256 -147.87  0.98305 -147.97  0.14405  -99.63
1309.309309  0.14092 -101.05  0.98445 -148.50  0.98389 -148.52  0.14145 -101.40
1312.312312  0.13644 -102.55  0.98446 -148.92  0.98455 -148.97  0.13621 -102.97
1315.315315  0.13006 -103.92  0.98251 -149.37  0.98270 -149.25  0.13073 -104.06
1318.318318  0.12589 -104.72  0.98316 -149.81  0.98469 -149.83  0.12638 -105.23
1321.321321  0.12060 -105.97  0.98129 -150.29  0.98249 -150.35  0.12035 -106.14
1324.324324  0.11492 -106.87  0.98239 -150.79  0.98217 -150.56  0.11525 -106.92
1327.327327  0.10884 -107.60  0.98034 -151.25  0.98027 -151.24  0.10865 -107.60
1330.330330  0.10253 -107.44  0.97938 -151.59  0.98226 -151.64  0.10257 -107.89
1333.333333  0.09542 -107.99  0.97845 -152.10  0.97941 -152.08  0.09542 -108.10
1336.336336  0.08982 -107.57  0.97716 -152.59  0.97818 -152.62  0.08955 -107.78
1339.339339  0.08256 -107.15  0.97716 -153.00  0.97836 -153.01  0.08288 -107.27
1342.342342  0.07541 -106.60  0.97648 -153.52  0.97629 -153.54  0.07574 -106.23
1345.345345  0.06964 -104.47  0.97500 -154.01  0.97517 -154.01  0.06975 -104.37
1348.348348  0.06266 -101.70  0.97205 -154.44  0.97247 -154.39  0.06279 -101.64
1351.351351  0.05734  -98.35  0.97071 -154.88  0.97184 -154.97  0.05677  -98.26
1354.354354  0.05086  -93.44  0.96881 -155.48  0.97044 -155.39  0.05175  -93.28
1357.357357  0.04668  -86.48  0.96800 -155.81  0.96878 -155.64  0.04682  -86.69
1360.360360  0.04410  -78.08  0.96652 -156.11  0.96787 -156.06  0.04438  -78.03
1363.363363  0.04250  -67.46  0.96484 -156.65  0.96593 -156.59  0.04261  -67.61
1366.366366  0.04222  -56.57  0.96454 -157.06  0.96430 -157.18  0.04165  -56.16
1369.369369  0.04490  -46.55  0.96155 -157.60  0.96257 -157.54  0.04414  -47.18
1372.372372  0.04897  -37.76  0.96040 -158.02  0.96223 -158.09  0.04945  -38.16
1375.375375  0.05399  -30.98  0.95862 -158.39  0.95998 -158.33  0.05395  -30.96
1378.378378  0.06157  -25.84  0.95650 -158.87  0.95686 -158.81  0.06144  -25.96
1381.381381  0.06794  -22.17  0.95510 -159.24  0.95642 -159.23  0.06798  -22.49
1384.384384  0.07726  -19.34  0.95177 -159.54  0.95365 -159.69  0.07658  -19.27
1387.387387  0.08559  -17.41  0.95007 -159.96  0.95121 -160.06  0.08557  -17.46
1390.390390  0.09423  -16.04  0.94990 -160.50  0.95056 -160.49  0.09451  -16.21
1393.393393  0.10429  -15.29  0.94835 -160.65  0.94874 -160.69  0.10390  -15.39
1396.396396  0.11294  -14.75  0.94703 -161.21  0.94749 -161.27  0.11346  -14.65
1399.399399  0.12284  -14.91  0.94386 -161.58  0.94433 -161.65  0.12311  -14.89
1402.402402  0.13321  -14.92  0.94245 -161.97  0.94373 -161.92  0.13313  -14.97
1405.405405  0.14176  -15.60  0.93923 -162.38  0.93985 -162.24  0.14227  -15.72
1408.408408  0.15094  -16.30  0.93696 -162.75  0.93825 -162.75  0.15098  -16.33
1411.411411  0.16054  -17.29  0.93623 -163.21  0.93750 -163.13  0.16101  -17.21
1414.414414  0.17085  -18.32  0.93366 -163.54  0.93490 -163.51  0.17106  -18.36
1417.417417  0.17997  -19.43  0.93121 -163.97  0.93270 -163.96  0.17959  -19.48
1420.420420  0.18941  -20.47  0.92884 -164.36  0.92862 -164.42  0.18977  -20.54
1423.423423  0.19965  -21.49  0.92470 -164.78  0.92604 -164.80  0.19907  -21.67
1426.426426  0.20803  -22.87  0.92363 -165.18  0.92486 -165.16  0.20810  -22.83
1429.429429  0.21774  -23.98  0.91979 -165.36  0.92033 -165.45  0.21841  -23.98
1432.432432  0.22582  -25.04  0.91793 -165.88  0.91804 -165.89  0.22627  -25.01
1435.435435  0.23514  -26.17  0.91462 -166.28  0.91429 -166.36  0.23506  -26.39
1438.438438  0.24278  -27.84  0.91201 -166.78  0.91234 -166.56  0.24343  -27.65
1441.441441  0.25251  -29.00  0.90920 -166.89  0.90924 -166.83  0.25147  -29.00
1444.444444  0.25939  -30.45  0.90611 -167.23  0.90537 -167.24  0.26006  -30.54
1447.447447  0.26760  -31.82  0.90306 -167.43  0.90358 -167.34  0.26880  -31.88
1450.450450  0.27556  -33.08  0.89830 -167.77  0.90016 -167.75  0.27631  -33.34
1453.453453  0.28357  -34.46  0.89655 -168.07  0.89694 -168.12  0.28373  -34.60
1456.456456  0.29070  -35.83  0.89317 -168.20  0.89419 -168.26  0.29071  -36.00
1459.459459  0.29792  -37.34  0.89117 -168.56  0.89185 -168.47  0.29835  -37.36
1462.462462  0.30570  -38.65  0.88785 -168.56  0.88804 -168.63  0.30568  -38.88
1465.465465  0.31175  -40.19  0.88525 -168.97  0.88553 -168.84  0.31189  -40.22
1468.468468  0.31863  -41.34  0.88328 -169.04  0.88377 -169.06  0.31909  -41.62
1471.471471  0.32521  -43.13  0.88087 -169.35  0.88244 -169.38  0.32502  -43.05
1474.474474  0.33091  -44.09  0.88099 -169.49  0.88178 -169.45  0.33119  -44.05
1477.477477  0.33651  -45.39  0.87608 -169.60  0.87782 -169.60  0.33779  -45.99
1480.480480  0.34205  -46.91  0.87478 -169.84  0.87566 -169.75  0.34306  -47.13
1483.483483  0.34712  -48.31  0.87335 -169.81  0.87367 -169.83  0.34770  -48.46
1486.486486  0.35282  -49.91  0.87245 -170.13  0.87268 -170.10  0.35219  -49.70
1489.489489  0.35615  -51.01  0.87082 -170.26  0.87278 -170.38  0.35662  -51.09
1492.492492  0.36112  -52.36  0.87174 -170.39  0.87222 -170.38  0.36146  -52.34
1495.495495  0.36461  -53.63  0.86903 -170.55  0.86931 -170.47  0.36485  -53.58
1498.498498  0.36848  -55.02  0.86811 -170.63  0.87012 -170.55  0.36852  -54.90
1501.501502  0.37224  -56.47  0.86808 -170.79  0.86960 -170.67  0.37280  -56.39
1504.504505  0.37522  -57.41  0.86813 -171.01  0.86687 -170.97  0.37484  -57.52
1507.507508  0.37781  -58.78  0.86892 -171.18  0.86922 -171.11  0.37815  -58.78
1510.510511  0.37976  -59.97  0.86831 -171.16  0.86913 -171.26  0.38179  -60.26
1513.513514  0.38323  -61.32  0.86964 -171.45  0.86956 -171.39  0.38385  -61.40
1516.516517  0.38454  -62.52  0.86856 -171.58  0.87110 -171.45  0.38546  -62.61
1519.519520  0.38735  -63.88  0.87082 -171.74  0.87223 -171.57  0.38856  -64.05
1522.522523  0.38883  -65.21  0.87305 -171.81  0.87326 -171.82  0.38852  -65.28
1525.525526  0.38895  -66.36  0.87438 -172.10  0.87532 -172.04  0.39038  -66.39
1528.528529  0.39156  -67.74  0.87480 -172.28  0.87551 -172.19  0.39134  -67.62
1531.531532  0.39144  -68.75  0.87813 -172.35  0.87949 -172.27  0.39094  -68.83
1534.534535  0.39135  -70.02  0.88022 -172.56  0.87997 -172.46  0.39199  -70.00
1537.537538  0.39157  -71.32  0.88171 -172.61  0.88393 -172.59  0.39263  -71.42
1540.540541  0.39224  -72.42  0.88336 -172.99  0.88642 -172.95  0.39293  -72.53
1543.543544  0.39187  -73.50  0.88739 -173.02  0.88919 -173.05  0.39226  -73.46
1546.546547  0.39183  -74.63  0.89070 -173.39  0.89168 -173.26  0.39188  -74.62
1549.549550  0.39144  -75.67  0.89416 -173.62  0.89600 -173.66  0.39143  -75.75
1552.552553  0.38967  -76.86  0.89775 -173.93  0.89702 -173.79  0.38793  -76.77
1555.555556  0.38773  -77.70  0.90019 -174.01  0.90169 -174.04  0.38793  -77.80
1558.558559  0.38501  -78.72  0.90350 -174.52  0.90447 -174.44  0.38551  -78.62
1561.561562  0.38375  -79.57  0.90729 -174.85  0.90746 -174.81  0.38350  -79.53
1564.564565  0.38073  -80.47  0.91032 -175.05  0.91163 -175.06  0.38064  -80.52
1567.567568  0.37933  -81.32  0.91523 -175.46  0.91524 -175.45  0.37862  -81.37
1570.570571  0.37368  -82.33  0.91656 -175.75  0.91766 -175.83  0.37445  -82.41
1573.573574  0.37175  -83.15  0.92182 -176.28  0.92261 -176.19  0.37129  -83.08
1576.576577  0.36750  -83.82  0.92504 -176.70  0.92650 -176.67  0.36705  -83.83
1579.579580  0.36451  -84.66  0.92872 -177.04  0.92910 -177.04  0.36416  -84.59
1582.582583  0.35989  -85.24  0.93182 -177.63  0.93187 -177.58  0.36002  -85.37
1585.585586  0.35502  -85.95  0.93420 -178.06  0.93499 -178.15  0.35592  -86.18
1588.588589  0.35165  -86.45  0.93705 -178.65  0.93906 -178.64  0.35118  -86.50
1591.591592  0.34748  -87.17  0.94031 -179.14  0.94181 -179.12  0.34614  -87.06
1594.594595  0.34132  -87.59  0.94292 -179.68  0.94362 -179.54  0.34112  -87.61
1597.597598  0.33727  -87.97  0.94536  179.74  0.94656  179.80  0.33622  -87.96
1600.600601  0.33214  -88.13  0.94666  179.24  0.94797  179.29  0.33230  -88.25
1603.603604  0.32638  -88.41  0.95052  178.69  0.95159  178.77  0.32594  -88.42
1606.606607  0.32172  -88.72  0.95191  177.98  0.95309  177.99  0.32081  -88.58
1609.609610  0.31584  -88.71  0.95396  177.44  0.95471  177.52  0.31576  -88.77
1612.612613  0.31075  -88.73  0.95388  177.01  0.95455  177.09  0.31019  -88.62
1615.615616  0.30478  -88.43  0.95476  176.30  0.95610  176.34  0.30461  -88.53
1618.618619  0.30056  -88.06  0.95681  175.74  0.95701  175.62  0.30008  -88.13
1621.621622  0.29485  -87.82  0.95794  175.13  0.95976  175.13  0.29518  -87.84
1624.624625  0.29021  -87.49  0.95908  174.54  0.96039  174.59  0.28954  -87.48
1627.627628  0.28586  -86.74  0.95855  173.90  0.95953  173.86  0.28545  -86.81
1630.630631  0.27998  -86.06  0.95823  173.19  0.95978  173.25  0.28032  -86.04
1633.633634  0.27555  -85.06  0.95589  172.68  0.95743  172.64  0.27495  -85.21
1636.636637  0.27297  -84.19  0.95631  171.93  0.95828  171.96  0.27205  -84.16
1639.639640  0.26947  -83.18  0.95387  171.43  0.95481  171.49  0.26882  -83.17
1642.642643  0.26729  -81.99  0.95417  170.79  0.95475  170.92  0.26664  -81.98
1645.645646  0.26508  -80.71  0.95239  170.21  0.95321  170.08  0.26503  -80.67
1648.648649  0.26413  -79.47  0.95013  169.31  0.95036  169.37  0.26313  -79.57
1651.651652  0.26297  -77.72  0.94682  168.81  0.94790  168.86  0.26233  -77.83
1654.654655  0.26229  -76.61  0.94317  168.25  0.94458  168.24  0.26215  -76.37
1657.657658  0.26291  -75.15  0.94098  167.56  0.94218  167.65  0.26251  -75.01
1660.660661  0.26436  -73.40  0.93638  167.07  0.93865  167.04  0.26484  -73.47
1663.663664  0.26735  -72.24  0.93443  166.29  0.93413  166.37  0.26689  -71.91
1666.666667  0.27028  -70.77  0.92910  165.88  0.92953  165.88  0.27014  -70.88
1669.669670  0.27443  -69.63  0.92489  165.16  0.92569  165.24  0.27388  -69.23
1672.672673  0.27861  -68.46  0.92049  164.70  0.92132  164.68  0.27846  -68.26
1675.675676  0.28433  -67.25  0.91652  164.09  0.91749  164.17  0.28329  -67.31
1678.678679  0.28899  -66.07  0.91130  163.69  0.91169  163.73  0.28867  -65.98
1681.681682  0.29546  -65.08  0.90532  163.13  0.90644  163.19  0.29567  -65.24
1684.684685  0.30290  -64.50  0.90060  162.58  0.90171  162.58  0.30279  -64.66
1687.687688  0.31017  -63.69  0.89583  162.34  0.89653  162.17  0.30966  -64.03
1690.690691  0.31874  -63.41  0.88957  161.63  0.89023  161.77  0.31847  -63.37
1693.693694  0.32756  -62.77  0.88439  161.45  0.88467  161.40  0.32636  -62.83
1696.696697  0.33487  -62.58  0.87817  160.83  0.87971  160.80  0.33553  -62.63
1699.699700  0.34368  -62.42  0.87312  160.57  0.87470  160.54  0.34365  -62.56
1702.702703  0.35259  -62.37  0.86657  160.18  0.86750  160.25  0.35223  -62.42
1705.705706  0.36185  -62.37  0.86225  159.75  0.86295  159.81  0.36143  -62.34
1708.708709  0.37137  -62.43  0.85741  159.52  0.85696  159.51  0.37010  -62.40
1711.711712  0.37901  -62.74  0.85030  159.22  0.85095  159.21  0.37909  -62.66
1714.714715  0.38750  -62.67  0.84498  159.06  0.84704  159.10  0.38802  -62.62
1717.717718  0.39664  -63.07  0.84011  158.78  0.84061  158.92  0.39665  -63.05
1720.720721  0.40540  -63.42  0.83472  158.65  0.83597  158.60  0.40570  -63.31
1723.723724  0.41537  -64.01  0.83048  158.39  0.83046  158.50  0.41453  -63.95
1726.726727  0.42276  -64.33  0.82515  158.23  0.82585  158.20  0.42417  -64.30
1729.729730  0.43185  -64.74  0.82134  158.17  0.82211  158.23  0.43178  -64.89
1732.732733  0.44095  -65.52  0.81726  158.03  0.81792  158.07  0.44082  -65.48
1735.735736  0.44969  -66.16  0.81303  157.75  0.81379  157.82  0.44955  -66.14
1738.738739  0.45739  -66.81  0.80906  157.76  0.80960  157.66  0.45690  -67.00
1741.741742  0.46455  -67.45  0.80602  157.81  0.80658  157.75  0.46452  -67.39
