# MHz S MA R 50
!   freq        S11              S21              S12              S22       
1000.000000  0.17834 -125.45  0.97252 -110.04  0.97299 -110.07  0.17850 -125.52
1003.003003  0.17979 -127.18  0.96950 -110.40  0.96915 -110.37  0.17977 -127.09
1006.006006  0.18113 -128.82  0.96740 -110.90  0.96680 -110.95  0.18089 -128.77
1009.009009  0.18159 -130.50  0.96364 -111.14  0.96454 -111.11  0.18193 -130.53
1012.012012  0.18275 -132.35  0.96234 -111.42  0.96138 -111.34  0.18347 -131.94
1015.015015  0.18424 -134.02  0.95958 -111.79  0.95842 -111.81  0.18420 -133.75
1018.018018  0.18495 -135.53  0.95591 -112.10  0.95638 -112.08  0.18438 -135.52
1021.021021  0.18470 -137.27  0.95258 -112.37  0.95129 -112.39  0.18476 -137.30
1024.024024  0.18470 -139.11  0.95114 -112.67  0.95081 -112.57  0.18468 -139.10
1027.027027  0.18380 -141.00  0.94788 -112.77  0.94804 -112.77  0.18416 -140.86
1030.030030  0.18378 -142.84  0.94669 -113.13  0.94570 -113.06  0.18331 -142.66
1033.033033  0.18240 -144.26  0.94331 -113.16  0.94324 -113.21  0.18219 -144.46
1036.036036  0.18053 -146.38  0.94304 -113.45  0.94268 -113.43  0.18066 -146.11
1039.039039  0.17905 -147.97  0.94006 -113.68  0.94000 -113.65  0.17945 -148.30
1042.042042  0.17713 -149.76  0.93983 -113.84  0.93929 -113.90  0.17670 -149.80
1045.045045  0.17588 -151.69  0.93735 -113.96  0.93732 -113.97  0.17590 -151.72
1048.048048  0.17414 -153.77  0.93675 -114.11  0.93709 -114.13  0.17412 -153.35
1051.051051  0.17001 -155.35  0.93650 -114.51  0.93696 -114.46  0.17036 -155.23
1054.054054  0.16816 -157.31  0.93646 -114.43  0.93631 -114.44  0.16817 -157.28
1057.057057  0.16560 -159.73  0.93662 -114.69  0.93655 -114.68  0.16526 -159.70
1060.060060  0.16210 -161.56  0.93723 -114.87  0.93702 -114.83  0.16256 -161.61
1063.063063  0.15908 -163.50  0.93843 -114.93  0.93737 -114.94  0.15876 -163.54
1066.066066  0.15627 -165.66  0.94010 -115.18  0.93954 -115.11  0.15559 -165.24
1069.069069  0.15139 -167.53  0.94043 -115.32  0.94093 -115.34  0.15243 -167.92
1072.072072  0.14814 -170.12  0.94266 -115.70  0.94244 -115.59  0.14817 -170.12
1075.075075  0.14277 -171.80  0.94386 -115.81  0.94406 -115.70  0.14368 -171.96
1078.078078  0.13877 -174.24  0.94638 -116.17  0.94548 -116.14  0.13809 -173.86
1081.081081  0.13371 -176.40  0.94802 -116.18  0.94732 -116.22  0.13270 -176.18
1084.084084  0.12900 -178.69  0.95000 -116.61  0.95001 -116.53  0.12902 -178.48
1087.087087  0.12314  178.51  0.95205 -116.75  0.95189 -116.75  0.12353  178.61
1090.090090  0.11845  175.85  0.95400 -117.14  0.95438 -117.16  0.11776  176.23
1093.093093  0.11245  173.31  0.95755 -117.48  0.95769 -117.44  0.11265  173.38
1096.096096  0.10772  170.25  0.95866 -117.78  0.95913 -117.84  0.10698  170.40
1099.099099  0.10125  167.65  0.96274 -118.19  0.96294 -118.18  0.10213  167.21
1102.102102  0.09558  163.99  0.96543 -118.49  0.96497 -118.50  0.09565  163.92
1105.105105  0.09065  160.80  0.96691 -119.05  0.96678 -118.99  0.09065  160.67
1108.108108  0.08485  157.54  0.96858 -119.33  0.96972 -119.39  0.08508  157.45
1111.111111  0.07878  153.38  0.96996 -119.77  0.96996 -119.81  0.07885  153.20
1114.114114  0.07320  148.65  0.97291 -120.25  0.97238 -120.26  0.07351  148.48
1117.117117  0.06778  144.11  0.97368 -120.59  0.97318 -120.69  0.06778  144.05
1120.120120  0.06231  137.96  0.97475 -121.19  0.97441 -121.07  0.06218  138.11
1123.123123  0.05662  131.76  0.97604 -121.48  0.97455 -121.51  0.05662  131.82
1126.126126  0.05331  124.58  0.97658 -122.10  0.97680 -122.08  0.05334  124.37
1129.129129  0.04771  116.01  0.97655 -122.32  0.97620 -122.33  0.04768  116.23
1132.132132  0.04478  107.23  0.97683 -122.93  0.97665 -122.96  0.04514  107.57
1135.135135  0.04101   96.28  0.97736 -123.37  0.97646 -123.33  0.04148   96.10
1138.138138  0.03955   84.77  0.97618 -123.77  0.97645 -123.82  0.03973   84.91
1141.141141  0.03919   72.51  0.97528 -124.30  0.97586 -124.27  0.03922   72.98
1144.144144  0.03937   59.17  0.97559 -124.78  0.97427 -124.69  0.03961   59.75
1147.147147  0.04189   46.42  0.97378 -125.17  0.97312 -125.24  0.04185   46.65
1150.150150  0.04615   36.01  0.97043 -125.51  0.97223 -125.62  0.04560   36.46
1153.153153  0.05015   27.10  0.96978 -126.15  0.97025 -126.06  0.04997   27.81
1156.156156  0.05564   19.96  0.96876 -126.44  0.96872 -126.46  0.05536   19.10
1159.159159  0.06028   13.40  0.96549 -126.92  0.96376 -126.97  0.06029   13.14
1162.162162  0.06654    6.98  0.96412 -127.33  0.96408 -127.26  0.06690    7.35
1165.165165  0.07291    2.16  0.96175 -127.72  0.96117 -127.67  0.07240    2.07
1168.168168  0.07943   -2.68  0.96014 -128.06  0.96022 -127.94  0.07907   -2.67
1171.171171  0.08409   -6.71  0.95810 -128.36  0.95825 -128.31  0.08466   -6.81
1174.174174  0.09067  -10.77  0.95674 -128.81  0.95610 -128.79  0.09013   -9.93
1177.177177  0.09510  -14.34  0.95440 -129.08  0.95396 -129.01  0.09523  -13.92
1180.180180  0.10285  -17.85  0.95145 -129.43  0.95144 -129.45  0.10280  -17.98
1183.183183  0.10808  -20.15  0.94798 -129.60  0.94874 -129.60  0.10877  -20.09
1186.186186  0.11482  -23.40  0.94636 -130.06  0.94752 -129.98  0.11477  -22.97
1189.189189  0.11980  -26.34  0.94408 -130.26  0.94434 -130.27  0.12012  -26.14
1192.192192  0.12651  -28.70  0.94257 -130.56  0.94280 -130.53  0.12636  -28.37
1195.195195  0.13266  -31.78  0.94179 -130.84  0.94173 -130.77  0.13285  -31.58
1198.198198  0.13894  -34.29  0.94105 -130.97  0.94102 -130.97  0.13866  -34.39
1201.201201  0.14321  -36.09  0.93900 -131.29  0.94009 -131.32  0.14420  -36.57
1204.204204  0.14804  -38.35  0.93776 -131.33  0.93773 -131.43  0.14835  -38.55
1207.207207  0.15446  -41.18  0.93798 -131.72  0.93776 -131.75  0.15427  -41.28
1210.210210  0.15857  -42.91  0.93769 -131.91  0.93738 -131.95  0.15901  -43.15
1213.213213  0.16453  -45.43  0.93778 -132.00  0.93592 -132.06  0.16431  -45.34
1216.216216  0.16907  -47.62  0.93593 -132.34  0.93670 -132.40  0.16906  -47.64
1219.219219  0.17374  -49.76  0.93674 -132.53  0.93689 -132.56  0.17331  -49.63
1222.222222  0.17675  -51.75  0.93713 -132.69  0.93616 -132.75  0.17742  -51.88
1225.225225  0.17960  -53.22  0.93739 -132.89  0.93684 -132.87  0.17981  -53.31
1228.228228  0.18359  -55.31  0.93889 -133.18  0.93832 -133.16  0.18460  -55.52
1231.231231  0.18681  -57.25  0.93910 -133.27  0.93935 -133.29  0.18750  -57.38
1234.234234  0.18992  -59.13  0.93958 -133.56  0.93960 -133.65  0.19001  -59.21
1237.237237  0.19224  -61.12  0.94018 -133.69  0.94068 -133.77  0.19258  -61.09
1240.240240  0.19490  -62.91  0.94251 -133.91  0.94194 -133.97  0.19490  -62.94
1243.243243  0.19964  -64.87  0.94560 -134.30  0.94491 -134.21  0.19797  -64.72
1246.246246  0.20078  -66.30  0.94664 -134.36  0.94616 -134.53  0.20141  -66.41
1249.249249  0.20207  -68.49  0.94706 -134.70  0.94770 -134.76  0.20319  -68.37
1252.252252  0.20350  -70.02  0.94978 -134.95  0.94874 -134.93  0.20460  -70.08
1255.255255  0.20595  -71.63  0.95108 -135.43  0.95190 -135.42  0.20649  -71.76
1258.258258  0.20768  -73.43  0.95330 -135.53  0.95313 -135.64  0.20797  -73.35
1261.261261  0.20854  -74.99  0.95589 -136.01  0.95628 -136.03  0.20906  -75.02
1264.264264  0.20769  -76.90  0.95908 -136.24  0.96082 -136.30  0.20822  -76.78
1267.267267  0.20840  -78.47  0.96094 -136.66  0.95983 -136.72  0.20853  -78.50
1270.270270  0.20858  -80.17  0.96216 -137.21  0.96258 -137.15  0.20902  -80.32
1273.273273  0.20815  -81.87  0.96563 -137.48  0.96481 -137.47  0.20835  -81.67
1276.276276  0.20722  -83.59  0.96656 -137.88  0.96607 -137.99  0.20771  -83.60
1279.279279  0.20673  -85.20  0.97042 -138.39  0.97032 -138.47  0.20701  -85.19
1282.282282  0.20542  -86.45  0.97089 -138.90  0.97108 -138.93  0.20574  -86.42
1285.285285  0.20392  -87.94  0.97328 -139.38  0.97361 -139.42  0.20410  -87.94
1288.288288  0.20201  -89.52  0.97527 -139.72  0.97405 -139.71  0.20223  -89.51
1291.291291  0.19945  -91.08  0.97620 -140.35  0.97578 -140.22  0.19960  -90.99
1294.294294  0.19695  -92.30  0.97642 -140.57  0.97812 -140.70  0.19728  -92.22
1297.297297  0.19426  -93.57  0.98017 -141.27  0.97955 -141.22  0.19452  -93.57
1300.300300  0.19102  -94.88  0.98008 -141.68  0.98106 -141.71  0.19141  -94.85
1303.303303  0.18794  -96.24  0.98142 -142.12  0.98084 -142.23  0.18767  -96.18
1306.306306  0.18390  -97.66  0.98196 -142.47  0.98152 -142.47  0.18399  -97.53
1309.309309  0.18245  -98.98  0.98288 -143.16  0.98382 -143.16  0.18161  -98.87
1312.312312  0.17781 -100.24  0.98322 -143.53  0.98321 -143.57  0.17787 -100.15
1315.315315  0.17274 -101.36  0.98102 -143.92  0.98144 -143.94  0.17302 -101.28
1318.318318  0.16891 -102.44  0.98283 -144.53  0.98266 -144.51  0.16854 -102.25
1321.321321  0.16374 -103.63  0.98159 -144.88  0.98119 -144.91  0.16379 -103.54
1324.324324  0.15875 -104.33  0.98280 -145.32  0.98233 -145.29  0.15864 -104.51
1327.327327  0.15353 -105.14  0.98180 -145.82  0.98149 -145.82  0.15350 -105.19
1330.330330  0.14731 -105.71  0.98091 -146.26  0.98096 -146.30  0.14791 -105.52
1333.333333  0.14061 -106.26  0.97946 -146.59  0.97901 -146.58  0.14087 -106.38
1336.336336  0.13577 -106.27  0.97780 -147.18  0.97685 -147.13  0.13550 -106.26
1339.339339  0.12843 -106.89  0.97785 -147.49  0.97729 -147.46  0.12843 -106.93
1342.342342  0.12182 -106.99  0.97549 -147.96  0.97539 -147.98  0.12218 -106.91
1345.345345  0.11531 -106.48  0.97536 -148.50  0.97572 -148.51  0.11569 -106.48
1348.348348  0.10860 -106.02  0.97184 -148.73  0.97252 -148.81  0.10894 -105.95
1351.351351  0.10230 -104.67  0.97168 -149.52  0.97133 -149.42  0.10243 -104.89
1354.354354  0.09590 -103.34  0.96974 -149.71  0.97015 -149.67  0.09564 -103.89
1357.357357  0.08929 -100.96  0.96805 -150.28  0.96954 -150.32  0.08895 -101.97
1360.360360  0.08437  -98.33  0.96757 -150.54  0.96669 -150.43  0.08452  -98.07
1363.363363  0.07895  -94.89  0.96612 -151.16  0.96544 -151.19  0.07870  -94.58
1366.366366  0.07185  -91.37  0.96370 -151.47  0.96428 -151.51  0.07214  -90.91
1369.369369  0.06917  -86.27  0.96376 -151.90  0.96393 -151.98  0.06919  -86.14
1372.372372  0.06627  -79.82  0.96229 -152.51  0.96243 -152.38  0.06636  -79.65
1375.375375  0.06449  -72.27  0.95990 -152.69  0.95993 -152.73  0.06424  -72.69
1378.378378  0.06451  -65.76  0.95867 -153.28  0.95806 -153.34  0.06415  -65.69
1381.381381  0.06584  -58.92  0.95727 -153.59  0.95682 -153.51  0.06616  -58.88
1384.384384  0.06848  -51.75  0.95454 -154.00  0.95375 -154.12  0.06881  -51.47
1387.387387  0.07304  -45.62  0.95207 -154.29  0.95210 -154.35  0.07327  -45.96
1390.390390  0.07867  -40.92  0.95162 -154.81  0.95190 -154.87  0.07834  -41.22
1393.393393  0.08554  -36.88  0.95084 -155.03  0.94980 -155.06  0.08571  -37.08
1396.396396  0.09277  -33.72  0.94895 -155.43  0.94838 -155.53  0.09267  -33.69
1399.399399  0.10090  -31.47  0.94608 -155.95  0.94688 -155.91  0.10146  -31.06
1402.402402  0.10986  -29.02  0.94488 -156.26  0.94471 -156.22  0.10977  -29.33
1405.405405  0.11836  -28.29  0.94257 -156.73  0.94199 -156.66  0.11786  -28.04
1408.408408  0.12700  -27.34  0.94035 -156.96  0.93980 -156.91  0.12733  -27.39
1411.411411  0.13676  -26.84  0.93936 -157.55  0.93875 -157.55  0.13712  -26.94
1414.414414  0.14684  -26.65  0.93768 -157.81  0.93716 -157.83  0.14695  -26.70
1417.417417  0.15595  -26.89  0.93595 -158.29  0.93551 -158.36  0.15614  -26.84
1420.420420  0.16575  -27.16  0.93300 -158.78  0.93280 -158.72  0.16628  -27.27
1423.423423  0.17606  -27.62  0.92956 -159.00  0.92975 -159.10  0.17642  -27.40
1426.426426  0.18530  -28.42  0.92758 -159.58  0.92772 -159.63  0.18533  -28.44
1429.429429  0.19576  -28.84  0.92433 -159.70  0.92431 -159.79  0.19536  -28.94
1432.432432  0.20418  -29.05  0.92254 -160.40  0.92205 -160.46  0.20408  -29.31
1435.435435  0.21326  -29.90  0.91875 -160.62  0.91810 -160.50  0.21328  -30.00
1438.438438  0.22331  -30.84  0.91746 -161.02  0.91624 -160.98  0.22261  -30.94
1441.441441  0.23163  -31.81  0.91354 -161.29  0.91347 -161.29  0.23162  -31.82
1444.444444  0.24219  -32.68  0.91155 -161.62  0.91007 -161.62  0.24122  -32.80
1447.447447  0.25102  -33.93  0.90896 -161.89  0.90742 -161.96  0.25081  -34.02
1450.450450  0.25874  -35.00  0.90336 -162.18  0.90396 -162.24  0.25972  -35.06
1453.453453  0.26781  -36.18  0.90132 -162.48  0.90135 -162.58  0.26820  -36.23
1456.456456  0.27587  -37.20  0.89749 -162.63  0.89723 -162.71  0.27656  -37.13
1459.459459  0.28443  -38.31  0.89500 -163.06  0.89515 -163.12  0.28416  -38.41
1462.462462  0.29267  -39.59  0.89144 -163.21  0.89192 -163.14  0.29275  -39.52
1465.465465  0.29994  -40.83  0.88903 -163.41  0.88814 -163.43  0.30027  -40.66
1468.468468  0.30758  -42.03  0.88643 -163.67  0.88588 -163.67  0.30748  -42.04
1471.471471  0.31499  -43.08  0.88482 -163.91  0.88367 -163.93  0.31479  -43.12
1474.474474  0.32193  -44.09  0.88368 -164.17  0.88167 -164.10  0.32261  -44.58
1477.477477  0.32876  -45.50  0.87813 -164.12  0.87822 -164.19  0.32868  -45.52
1480.480480  0.33554  -46.88  0.87660 -164.42  0.87607 -164.49  0.33511  -46.65
1483.483483  0.34137  -48.13  0.87438 -164.36  0.87388 -164.25  0.34140  -48.00
1486.486486  0.34687  -49.13  0.87266 -164.79  0.87270 -164.75  0.34782  -49.23
1489.489489  0.35293  -50.45  0.87044 -164.78  0.87074 -164.85  0.35277  -50.41
1492.492492  0.35792  -51.49  0.87095 -164.78  0.87066 -164.99  0.35840  -51.71
1495.495495  0.36273  -52.95  0.86799 -165.15  0.86861 -165.13  0.36296  -52.78
1498.498498  0.36762  -54.04  0.86828 -165.15  0.86761 -165.17  0.36743  -53.85
1501.501502  0.37214  -55.20  0.86710 -165.37  0.86616 -165.37  0.37269  -55.28
1504.504505  0.37591  -56.27  0.86579 -165.50  0.86578 -165.51  0.37662  -56.29
1507.507508  0.38013  -57.60  0.86502 -165.68  0.86602 -165.62  0.37990  -57.59
1510.510511  0.38380  -58.83  0.86611 -165.72  0.86684 -165.62  0.38393  -58.77
1513.513514  0.38806  -59.93  0.86621 -165.86  0.86675 -165.95  0.38794  -59.99
1516.516517  0.39030  -60.99  0.86611 -165.94  0.86597 -166.03  0.39069  -61.14
1519.519520  0.39327  -62.28  0.86683 -166.13  0.86786 -166.09  0.39454  -62.27
1522.522523  0.39450  -63.55  0.86862 -166.37  0.86828 -166.31  0.39443  -63.56
1525.525526  0.39812  -64.62  0.87029 -166.21  0.86957 -166.35  0.39817  -64.70
1528.528529  0.40026  -65.93  0.87050 -166.64  0.87036 -166.67  0.39974  -66.00
1531.531532  0.39944  -66.93  0.87336 -166.56  0.87296 -166.52  0.40004  -66.78
1534.534535  0.40146  -68.06  0.87433 -166.91  0.87455 -166.80  0.40267  -68.19
1537.537538  0.40267  -69.26  0.87766 -166.82  0.87677 -166.79  0.40402  -69.37
1540.540541  0.40417  -70.35  0.87929 -167.22  0.87888 -167.31  0.40418  -70.30
1543.543544  0.40535  -71.43  0.88176 -167.34  0.88207 -167.16  0.40554  -71.41
1546.546547  0.40519  -72.28  0.88570 -167.46  0.88441 -167.51  0.40598  -72.30
1549.549550  0.40553  -73.47  0.88811 -167.75  0.88815 -167.83  0.40618  -73.51
1552.552553  0.40365  -74.47  0.89101 -167.87  0.89151 -167.94  0.40394  -74.50
1555.555556  0.40421  -75.56  0.89400 -168.26  0.89369 -168.29  0.40475  -75.59
1558.558559  0.40288  -76.40  0.89924 -168.44  0.89828 -168.42  0.40243  -76.37
1561.561562  0.40209  -77.19  0.89980 -168.88  0.90123 -168.85  0.40229  -77.15
1564.564565  0.40008  -78.13  0.90505 -169.03  0.90565 -169.05  0.40046  -78.04
1567.567568  0.39829  -78.94  0.90941 -169.49  0.90851 -169.44  0.39859  -78.88
1570.570571  0.39520  -80.03  0.91208 -169.78  0.91137 -169.71  0.39515  -80.03
1573.573574  0.39374  -80.61  0.91604 -170.04  0.91465 -170.14  0.39281  -80.63
1576.576577  0.39017  -81.52  0.92030 -170.71  0.92006 -170.73  0.39046  -81.54
1579.579580  0.38730  -82.16  0.92301 -170.81  0.92279 -170.82  0.38697  -82.10
1582.582583  0.38315  -82.89  0.92660 -171.57  0.92580 -171.46  0.38365  -82.91
1585.585586  0.38006  -83.71  0.93093 -171.96  0.93034 -171.91  0.38017  -83.69
1588.588589  0.37690  -84.32  0.93220 -172.49  0.93210 -172.51  0.37708  -84.29
1591.591592  0.37244  -84.97  0.93582 -172.95  0.93622 -172.91  0.37263  -84.99
1594.594595  0.36690  -85.37  0.93860 -173.43  0.93838 -173.51  0.36710  -85.40
1597.597598  0.36383  -85.95  0.94216 -173.97  0.94159 -173.95  0.36401  -86.01
1600.600601  0.35878  -86.16  0.94364 -174.47  0.94339 -174.49  0.35855  -86.23
1603.603604  0.35291  -86.56  0.94654 -175.19  0.94659 -175.07  0.35359  -86.53
1606.606607  0.34878  -86.97  0.94824 -175.79  0.94852 -175.68  0.34933  -86.91
1609.609610  0.34289  -87.11  0.95017 -176.31  0.95018 -176.49  0.34396  -87.22
1612.612613  0.33847  -87.26  0.95116 -176.73  0.95123 -176.77  0.33913  -87.30
1615.615616  0.33308  -87.15  0.95178 -177.44  0.95198 -177.36  0.33319  -87.07
1618.618619  0.32860  -87.04  0.95339 -178.20  0.95313 -178.06  0.32878  -87.02
1621.621622  0.32314  -86.93  0.95461 -178.60  0.95476 -178.61  0.32341  -87.01
1624.624625  0.31811  -86.86  0.95628 -179.30  0.95471 -179.22  0.31761  -86.91
1627.627628  0.31333  -86.36  0.95591 -179.83  0.95575 -179.82  0.31387  -86.38
1630.630631  0.30753  -86.01  0.95561  179.35  0.95562  179.30  0.30787  -86.00
1633.633634  0.30297  -85.40  0.95425  179.00  0.95502  178.87  0.30299  -85.31
1636.636637  0.29882  -84.61  0.95437  178.21  0.95409  178.14  0.29878  -84.64
1639.639640  0.29429  -84.11  0.95158  177.60  0.95176  177.67  0.29430  -84.14
1642.642643  0.29181  -82.90  0.95069  177.18  0.95087  177.10  0.29213  -83.01
1645.645646  0.28833  -81.90  0.94932  176.39  0.94934  176.49  0.28873  -82.12
1648.648649  0.28581  -81.11  0.94758  175.67  0.94715  175.71  0.28545  -81.02
1651.651652  0.28333  -79.79  0.94459  174.91  0.94532  175.00  0.28336  -79.61
1654.654655  0.28107  -78.61  0.94131  174.54  0.94109  174.68  0.28125  -78.56
1657.657658  0.28058  -77.34  0.93909  173.80  0.93919  173.91  0.28080  -77.35
1660.660661  0.28051  -75.65  0.93579  173.28  0.93533  173.31  0.28048  -75.57
1663.663664  0.28138  -74.54  0.93183  172.66  0.93148  172.56  0.28083  -74.37
1666.666667  0.28320  -73.15  0.92777  172.04  0.92669  172.19  0.28241  -73.24
1669.669670  0.28470  -71.64  0.92315  171.50  0.92421  171.53  0.28580  -71.68
1672.672673  0.28742  -70.51  0.91942  170.88  0.91966  170.97  0.28796  -70.60
1675.675676  0.29162  -69.14  0.91558  170.55  0.91578  170.50  0.29200  -69.32
1678.678679  0.29540  -68.27  0.90950  169.84  0.90973  170.00  0.29520  -68.07
1681.681682  0.30041  -66.83  0.90490  169.52  0.90463  169.50  0.30058  -66.88
1684.684685  0.30658  -65.91  0.89898  168.88  0.89914  168.78  0.30679  -66.08
1687.687688  0.31201  -65.40  0.89457  168.49  0.89496  168.56  0.31215  -65.13
1690.690691  0.32027  -64.47  0.88798  167.96  0.88844  167.87  0.32033  -64.50
1693.693694  0.32675  -63.77  0.88331  167.57  0.88311  167.67  0.32723  -63.53
1696.696697  0.33518  -63.03  0.87784  167.13  0.87735  167.14  0.33479  -63.16
1699.699700  0.34205  -62.79  0.87242  166.70  0.87325  166.75  0.34303  -62.79
1702.702703  0.35232  -62.48  0.86674  166.57  0.86633  166.51  0.35125  -62.42
1705.705706  0.35940  -62.18  0.86047  165.96  0.85987  166.01  0.35867  -62.20
1708.708709  0.36792  -62.04  0.85599  165.78  0.85732  165.84  0.36936  -62.00
1711.711712  0.37620  -61.93  0.84960  165.40  0.84956  165.38  0.37724  -62.05
1714.714715  0.38513  -61.79  0.84519  165.24  0.84507  165.26  0.38537  -61.69
1717.717718  0.39379  -61.93  0.83874  165.04  0.83846  164.95  0.39380  -61.96
1720.720721  0.40294  -62.32  0.83395  164.58  0.83391  164.69  0.40307  -62.30
1723.723724  0.41244  -62.32  0.82933  164.60  0.82980  164.49  0.41360  -62.54
1726.726727  0.42102  -62.87  0.82413  164.25  0.82438  164.25  0.42082  -62.89
1729.729730  0.43133  -63.09  0.82068  164.29  0.82063  164.24  0.43175  -63.00
1732.732733  0.43910  -63.50  0.81573  164.00  0.81610  164.03  0.43971  -63.41
1735.735736  0.44832  -64.00  0.81131  163.87  0.81135  163.85  0.44834  -63.99
1738.738739  0.45685  -64.44  0.80740  163.73  0.80790  163.66  0.45746  -64.55
1741.741742  0.46470  -65.05  0.80410  163.73  0.80418  163.76  0.46402  -65.12
