# MHz S MA R 50
!   freq        S11       
1000.000000  0.17814 -125.48
1003.003003  0.17965 -127.24
1006.006006  0.18123 -128.73
1009.009009  0.18195 -130.39
1012.012012  0.18279 -132.13
1015.015015  0.18324 -134.02
1018.018018  0.18502 -135.68
1021.021021  0.18433 -137.69
1024.024024  0.18478 -138.97
1027.027027  0.18370 -140.88
1030.030030  0.18258 -142.86
1033.033033  0.18236 -144.38
1036.036036  0.18041 -146.24
1039.039039  0.17929 -147.96
1042.042042  0.17674 -149.86
1045.045045  0.17556 -151.79
1048.048048  0.17368 -153.26
1051.051051  0.17036 -155.28
1054.054054  0.16886 -157.49
1057.057057  0.16477 -159.44
1060.060060  0.16232 -161.56
1063.063063  0.15931 -163.58
1066.066066  0.15627 -165.55
1069.069069  0.15205 -167.74
1072.072072  0.14687 -169.79
1075.075075  0.14295 -172.04
1078.078078  0.13786 -173.58
1081.081081  0.13335 -176.32
1084.084084  0.12833 -178.93
1087.087087  0.12280  178.54
1090.090090  0.11803  176.06
1093.093093  0.11174  173.33
1096.096096  0.10673  170.52
1099.099099  0.10201  167.49
1102.102102  0.09537  164.42
1105.105105  0.09025  160.30
1108.108108  0.08473  157.56
1111.111111  0.07814  153.18
1114.114114  0.07365  148.81
1117.117117  0.06724  143.46
1120.120120  0.06146  138.15
1123.123123  0.05669  131.50
1126.126126  0.05239  124.54
1129.129129  0.04770  116.11
1132.132132  0.04481  107.10
1135.135135  0.04089   96.09
1138.138138  0.03955   84.87
1141.141141  0.03868   71.64
1144.144144  0.03942   59.36
1147.147147  0.04180   45.77
1150.150150  0.04627   35.73
1153.153153  0.05004   26.40
1156.156156  0.05573   18.97
1159.159159  0.06077   13.05
1162.162162  0.06774    6.91
1165.165165  0.07247    1.94
1168.168168  0.07879   -2.74
1171.171171  0.08504   -7.08
1174.174174  0.09083  -10.83
1177.177177  0.09622  -14.28
1180.180180  0.10294  -17.15
1183.183183  0.10926  -20.06
1186.186186  0.11549  -23.65
1189.189189  0.12054  -26.33
1192.192192  0.12798  -29.12
1195.195195  0.13256  -31.49
1198.198198  0.13906  -34.15
1201.201201  0.14402  -36.18
1204.204204  0.14922  -38.47
1207.207207  0.15444  -41.34
1210.210210  0.15879  -42.86
1213.213213  0.16467  -45.19
1216.216216  0.16965  -47.61
1219.219219  0.17365  -49.71
1222.222222  0.17698  -51.74
1225.225225  0.18076  -53.41
1228.228228  0.18419  -55.35
1231.231231  0.18713  -57.24
1234.234234  0.19070  -59.20
1237.237237  0.19333  -61.14
1240.240240  0.19569  -62.84
1243.243243  0.19951  -64.88
1246.246246  0.20036  -66.35
1249.249249  0.20275  -68.26
1252.252252  0.20401  -70.17
1255.255255  0.20622  -71.62
1258.258258  0.20721  -73.22
1261.261261  0.20861  -75.01
1264.264264  0.20770  -76.85
1267.267267  0.20908  -78.52
1270.270270  0.20896  -80.29
1273.273273  0.20824  -81.80
1276.276276  0.20734  -83.65
1279.279279  0.20684  -85.19
1282.282282  0.20558  -86.49
1285.285285  0.20381  -87.98
1288.288288  0.20201  -89.53
1291.291291  0.19942  -91.06
1294.294294  0.19716  -92.26
1297.297297  0.19424  -93.61
1300.300300  0.19101  -94.91
1303.303303  0.18735  -96.21
1306.306306  0.18384  -97.64
1309.309309  0.18172  -98.92
1312.312312  0.17789 -100.20
1315.315315  0.17258 -101.36
1318.318318  0.16907 -102.35
1321.321321  0.16364 -103.65
1324.324324  0.15871 -104.36
1327.327327  0.15344 -105.10
1330.330330  0.14772 -105.69
1333.333333  0.14054 -106.44
1336.336336  0.13553 -106.38
1339.339339  0.12857 -106.97
1342.342342  0.12188 -106.88
1345.345345  0.11528 -106.85
1348.348348  0.10806 -106.34
1351.351351  0.10231 -105.00
1354.354354  0.09586 -103.87
1357.357357  0.08868 -101.93
1360.360360  0.08405  -99.18
1363.363363  0.07876  -95.35
1366.366366  0.07223  -91.62
1369.369369  0.06941  -85.17
1372.372372  0.06665  -79.10
1375.375375  0.06418  -73.48
1378.378378  0.06437  -65.86
1381.381381  0.06586  -58.75
1384.384384  0.06849  -51.99
1387.387387  0.07337  -45.60
1390.390390  0.07832  -41.16
1393.393393  0.08530  -37.25
1396.396396  0.09251  -33.69
1399.399399  0.10045  -31.78
1402.402402  0.10976  -29.28
1405.405405  0.11837  -28.04
1408.408408  0.12714  -27.29
1411.411411  0.13664  -26.76
1414.414414  0.14665  -27.00
1417.417417  0.15619  -27.13
1420.420420  0.16589  -27.24
1423.423423  0.17610  -27.50
1426.426426  0.18471  -28.20
1429.429429  0.19571  -28.60
1432.432432  0.20374  -29.31
1435.435435  0.21342  -29.92
1438.438438  0.22338  -30.70
1441.441441  0.23152  -32.03
1444.444444  0.24205  -32.81
1447.447447  0.24973  -33.96
1450.450450  0.25868  -34.95
1453.453453  0.26781  -36.24
1456.456456  0.27625  -37.33
1459.459459  0.28411  -38.41
1462.462462  0.29211  -39.83
1465.465465  0.30013  -40.69
1468.468468  0.30752  -42.09
1471.471471  0.31566  -43.35
1474.474474  0.32217  -44.37
1477.477477  0.32846  -45.57
1480.480480  0.33527  -47.00
1483.483483  0.34117  -48.02
1486.486486  0.34716  -49.27
1489.489489  0.35227  -50.54
1492.492492  0.35826  -51.60
1495.495495  0.36298  -52.89
1498.498498  0.36751  -53.95
1501.501502  0.37218  -55.28
1504.504505  0.37669  -56.34
1507.507508  0.38041  -57.76
1510.510511  0.38401  -58.94
1513.513514  0.38743  -59.83
1516.516517  0.39091  -61.10
1519.519520  0.39408  -62.32
1522.522523  0.39482  -63.52
1525.525526  0.39753  -64.68
1528.528529  0.39903  -65.88
1531.531532  0.40055  -67.03
1534.534535  0.40189  -68.17
1537.537538  0.40393  -69.38
1540.540541  0.40501  -70.37
1543.543544  0.40488  -71.51
1546.546547  0.40549  -72.53
1549.549550  0.40597  -73.63
1552.552553  0.40415  -74.49
1555.555556  0.40476  -75.61
1558.558559  0.40324  -76.45
1561.561562  0.40192  -77.21
1564.564565  0.40058  -78.14
1567.567568  0.39857  -79.05
1570.570571  0.39497  -80.17
1573.573574  0.39271  -80.76
1576.576577  0.39022  -81.53
1579.579580  0.38747  -82.22
1582.582583  0.38352  -82.99
1585.585586  0.37975  -83.77
1588.588589  0.37649  -84.23
1591.591592  0.37186  -84.92
1594.594595  0.36644  -85.35
1597.597598  0.36363  -85.95
1600.600601  0.35832  -86.21
1603.603604  0.35245  -86.57
1606.606607  0.34895  -87.03
1609.609610  0.34361  -87.27
1612.612613  0.33835  -87.20
1615.615616  0.33271  -87.23
1618.618619  0.32821  -87.21
1621.621622  0.32366  -87.09
1624.624625  0.31684  -86.96
1627.627628  0.31343  -86.46
1630.630631  0.30710  -86.00
1633.633634  0.30211  -85.38
1636.636637  0.29845  -84.72
1639.639640  0.29381  -84.10
1642.642643  0.29133  -82.98
1645.645646  0.28756  -82.19
1648.648649  0.28467  -81.06
1651.651652  0.28221  -79.83
1654.654655  0.28100  -78.71
1657.657658  0.27965  -77.36
1660.660661  0.27977  -75.91
1663.663664  0.28054  -74.28
1666.666667  0.28201  -73.02
1669.669670  0.28482  -71.78
1672.672673  0.28710  -70.45
1675.675676  0.29123  -69.35
1678.678679  0.29452  -68.35
1681.681682  0.29996  -66.87
1684.684685  0.30600  -66.16
1687.687688  0.31176  -65.40
1690.690691  0.31969  -64.12
1693.693694  0.32653  -63.87
1696.696697  0.33497  -63.06
1699.699700  0.34262  -62.84
1702.702703  0.35096  -62.51
1705.705706  0.35845  -62.09
1708.708709  0.36878  -61.96
1711.711712  0.37653  -61.96
1714.714715  0.38389  -61.84
1717.717718  0.39442  -61.97
1720.720721  0.40268  -62.16
1723.723724  0.41220  -62.41
1726.726727  0.42147  -62.80
1729.729730  0.42979  -63.11
1732.732733  0.43853  -63.58
1735.735736  0.44847  -63.97
1738.738739  0.45631  -64.36
1741.741742  0.46385  -65.05
1744.744745  0.47232  -65.57
1747.747748  0.47998  -66.17
1750.750751  0.48731  -66.88
1753.753754  0.49335  -67.42
1756.756757  0.50117  -68.14
1759.759760  0.50712  -68.75
1762.762763  0.51377  -69.45
1765.765766  0.52001  -70.15
1768.768769  0.52578  -71.02
1771.771772  0.53222  -71.81
1774.774775  0.53705  -72.49
1777.777778  0.54327  -73.08
1780.780781  0.54791  -73.89
1783.783784  0.55158  -74.76
1786.786787  0.55587  -75.35
1789.789790  0.56007  -76.27
1792.792793  0.56436  -76.79
1795.795796  0.56698  -77.52
1798.798799  0.57005  -78.25
1801.801802  0.57196  -79.09
1804.804805  0.57513  -79.70
1807.807808  0.57941  -80.44
1810.810811  0.58052  -81.05
1813.813814  0.58271  -81.95
1816.816817  0.58302  -82.77
1819.819820  0.58614  -83.36
1822.822823  0.58676  -84.24
1825.825826  0.58804  -84.76
1828.828829  0.58731  -85.65
1831.831832  0.58860  -86.21
1834.834835  0.58975  -87.04
1837.837838  0.58794  -87.90
1840.840841  0.58852  -88.38
1843.843844  0.58800  -89.18
1846.846847  0.58726  -89.82
1849.849850  0.58601  -90.51
1852.852853  0.58479  -91.20
1855.855856  0.58320  -91.88
1858.858859  0.58069  -92.30
1861.861862  0.57901  -93.04
1864.864865  0.57701  -93.61
1867.867868  0.57451  -94.07
1870.870871  0.57136  -94.75
1873.873874  0.56945  -95.22
1876.876877  0.56556  -95.70
1879.879880  0.56253  -96.13
1882.882883  0.55834  -96.65
1885.885886  0.55451  -96.93
1888.888889  0.55110  -97.23
1891.891892  0.54755  -97.86
1894.894895  0.54361  -98.00
1897.897898  0.53749  -98.31
1900.900901  0.53291  -98.55
1903.903904  0.52948  -98.79
1906.906907  0.52442  -98.93
1909.909910  0.51972  -98.94
1912.912913  0.51482  -98.96
1915.915916  0.51099  -99.01
1918.918919  0.50628  -99.15
1921.921922  0.50182  -98.80
1924.924925  0.49586  -98.73
1927.927928  0.49306  -98.43
1930.930931  0.48901  -98.08
1933.933934  0.48555  -97.86
1936.936937  0.48280  -97.35
1939.939940  0.47889  -96.97
1942.942943  0.47651  -96.42
1945.945946  0.47516  -95.83
1948.948949  0.47396  -95.46
1951.951952  0.47173  -94.68
1954.954955  0.47218  -94.21
1957.957958  0.47266  -93.66
1960.960961  0.47371  -92.90
1963.963964  0.47516  -92.29
1966.966967  0.47666  -91.96
1969.969970  0.47895  -91.08
1972.972973  0.48170  -90.66
1975.975976  0.48484  -90.08
1978.978979  0.48957  -89.70
1981.981982  0.49482  -89.14
1984.984985  0.49977  -88.88
1987.987988  0.50392  -88.40
1990.990991  0.51019  -88.20
1993.993994  0.51651  -88.08
1996.996997  0.52321  -87.84
2000.000000  0.52916  -87.83
2003.003003  0.53581  -87.51
2006.006006  0.54309  -87.61
2009.009009  0.54968  -87.42
2012.012012  0.55604  -87.43
2015.015015  0.56265  -87.58
2018.018018  0.57022  -87.66
2021.021021  0.57741  -87.97
2024.024024  0.58286  -88.08
2027.027027  0.59041  -88.50
2030.030030  0.59712  -88.40
2033.033033  0.60178  -89.07
2036.036036  0.60816  -89.36
2039.039039  0.61650  -89.64
2042.042042  0.62108  -90.00
2045.045045  0.62696  -90.35
2048.048048  0.63221  -90.92
2051.051051  0.63907  -91.19
2054.054054  0.64083  -91.64
2057.057057  0.64768  -92.10
2060.060060  0.65233  -92.50
2063.063063  0.65577  -93.13
2066.066066  0.66070  -93.60
2069.069069  0.66260  -94.10
2072.072072  0.66922  -94.57
2075.075075  0.67053  -95.01
2078.078078  0.67563  -95.68
2081.081081  0.67646  -96.19
2084.084084  0.68038  -96.58
2087.087087  0.68141  -97.07
2090.090090  0.68332  -97.77
2093.093093  0.68649  -98.33
2096.096096  0.68688  -98.69
2099.099099  0.68997  -99.08
2102.102102  0.69013  -99.73
2105.105105  0.69320 -100.21
2108.108108  0.69368 -100.77
2111.111111  0.69619 -101.27
2114.114114  0.69811 -101.76
2117.117117  0.69751 -102.33
2120.120120  0.70036 -102.63
2123.123123  0.70120 -103.57
2126.126126  0.70163 -103.86
2129.129129  0.70157 -104.47
2132.132132  0.70207 -105.10
2135.135135  0.70238 -105.50
2138.138138  0.69994 -106.08
2141.141141  0.70163 -106.61
2144.144144  0.69903 -107.12
2147.147147  0.69936 -107.76
2150.150150  0.69772 -108.22
2153.153153  0.69573 -108.59
2156.156156  0.69360 -109.11
2159.159159  0.69343 -109.61
2162.162162  0.69053 -110.07
2165.165165  0.68694 -110.48
2168.168168  0.68519 -110.89
2171.171171  0.68223 -111.28
2174.174174  0.67904 -111.70
2177.177177  0.67504 -112.06
2180.180180  0.67153 -112.29
2183.183183  0.66821 -112.71
2186.186186  0.66534 -112.90
2189.189189  0.66196 -113.33
2192.192192  0.65652 -113.56
2195.195195  0.65236 -113.81
2198.198198  0.64909 -114.02
2201.201201  0.64560 -114.06
2204.204204  0.64028 -114.45
2207.207207  0.63549 -114.43
2210.210210  0.63290 -114.54
2213.213213  0.62755 -114.57
2216.216216  0.62354 -114.66
2219.219219  0.62006 -114.66
2222.222222  0.61502 -114.59
2225.225225  0.60956 -114.47
2228.228228  0.60808 -114.45
2231.231231  0.60250 -114.28
2234.234234  0.60029 -113.94
2237.237237  0.59787 -113.88
2240.240240  0.59369 -113.46
2243.243243  0.59166 -113.26
2246.246246  0.58927 -112.82
2249.249249  0.58841 -112.58
2252.252252  0.58661 -112.15
2255.255255  0.58827 -111.61
2258.258258  0.58700 -111.44
2261.261261  0.58693 -111.21
2264.264264  0.58816 -110.73
2267.267267  0.58797 -110.64
2270.270270  0.59018 -110.10
2273.273273  0.59312 -109.74
2276.276276  0.59589 -109.51
2279.279279  0.59732 -109.34
2282.282282  0.60150 -109.00
2285.285285  0.60493 -108.77
2288.288288  0.60854 -108.66
2291.291291  0.61351 -108.40
2294.294294  0.61720 -108.17
2297.297297  0.62237 -108.10
2300.300300  0.62640 -107.96
2303.303303  0.63165 -107.97
2306.306306  0.63708 -108.15
2309.309309  0.64086 -107.85
2312.312312  0.64664 -108.03
2315.315315  0.65172 -107.92
2318.318318  0.65698 -108.28
2321.321321  0.66234 -108.26
2324.324324  0.66660 -108.33
2327.327327  0.67133 -108.88
2330.330330  0.67545 -108.98
2333.333333  0.68100 -109.20
2336.336336  0.68499 -109.27
2339.339339  0.68950 -109.62
2342.342342  0.69372 -109.96
2345.345345  0.69905 -110.26
2348.348348  0.70073 -110.72
2351.351351  0.70647 -111.01
2354.354354  0.70860 -111.35
2357.357357  0.71288 -111.62
2360.360360  0.71650 -112.14
2363.363363  0.71710 -112.47
2366.366366  0.72305 -112.82
2369.369369  0.72511 -113.24
2372.372372  0.72830 -113.56
2375.375375  0.72880 -114.08
2378.378378  0.73109 -114.43
2381.381381  0.73057 -114.94
2384.384384  0.73424 -115.23
2387.387387  0.73415 -115.56
2390.390390  0.73527 -116.03
2393.393393  0.73839 -116.39
2396.396396  0.73840 -116.47
2399.399399  0.74013 -116.93
2402.402402  0.74251 -117.36
2405.405405  0.74279 -117.43
2408.408408  0.74602 -118.09
2411.411411  0.74592 -118.27
2414.414414  0.74879 -118.90
2417.417417  0.74901 -119.53
2420.420420  0.75203 -119.84
2423.423423  0.75109 -120.31
2426.426426  0.75330 -120.79
2429.429429  0.75189 -121.33
2432.432432  0.75282 -121.64
2435.435435  0.75243 -122.47
2438.438438  0.75047 -122.54
2441.441441  0.75190 -123.31
2444.444444  0.74706 -123.60
2447.447447  0.74590 -124.16
2450.450450  0.74610 -124.89
2453.453453  0.74411 -125.05
2456.456456  0.73969 -125.60
2459.459459  0.73859 -125.88
2462.462462  0.73446 -126.36
2465.465465  0.73297 -126.65
2468.468468  0.72743 -126.69
2471.471471  0.72635 -127.26
2474.474474  0.72271 -127.46
2477.477477  0.72025 -127.91
2480.480480  0.71662 -128.02
2483.483483  0.71372 -128.91
2486.486486  0.70877 -128.65
2489.489489  0.70673 -129.08
2492.492492  0.70173 -129.18
2495.495495  0.69909 -129.61
2498.498498  0.69425 -129.71
2501.501502  0.69020 -129.73
2504.504505  0.68519 -129.98
2507.507508  0.68028 -130.21
2510.510511  0.67668 -130.24
2513.513514  0.67181 -130.15
2516.516517  0.66755 -130.71
2519.519520  0.66362 -130.34
2522.522523  0.65994 -130.42
2525.525526  0.65419 -130.37
2528.528529  0.65135 -130.07
2531.531532  0.64535 -130.01
2534.534535  0.64171 -129.79
2537.537538  0.63853 -129.60
2540.540541  0.63498 -129.35
2543.543544  0.63299 -129.08
2546.546547  0.63133 -129.17
2549.549550  0.62980 -128.68
2552.552553  0.62843 -128.62
2555.555556  0.62765 -128.15
2558.558559  0.62709 -128.21
2561.561562  0.62686 -127.87
2564.564565  0.62490 -127.74
2567.567568  0.62625 -127.23
2570.570571  0.62807 -127.29
2573.573574  0.62818 -126.96
2576.576577  0.62978 -126.67
2579.579580  0.63191 -126.43
2582.582583  0.63179 -126.09
2585.585586  0.63504 -125.99
2588.588589  0.63809 -125.83
2591.591592  0.63973 -125.67
2594.594595  0.64250 -125.40
2597.597598  0.64729 -125.32
2600.600601  0.65027 -125.35
2603.603604  0.65343 -125.37
2606.606607  0.65706 -125.19
2609.609610  0.66239 -125.07
2612.612613  0.66540 -125.18
2615.615616  0.66892 -125.38
2618.618619  0.67268 -125.48
2621.621622  0.67713 -125.43
2624.624625  0.68170 -125.60
2627.627628  0.68438 -125.91
2630.630631  0.68913 -125.90
2633.633634  0.69142 -126.30
2636.636637  0.69626 -126.46
2639.639640  0.69941 -126.58
2642.642643  0.70250 -127.11
2645.645646  0.70854 -127.42
2648.648649  0.70953 -127.62
2651.651652  0.71284 -127.69
2654.654655  0.71399 -128.16
2657.657658  0.72013 -128.55
2660.660661  0.72108 -129.05
2663.663664  0.72147 -129.21
2666.666667  0.72230 -129.33
2669.669670  0.72560 -129.91
2672.672673  0.72366 -130.15
2675.675676  0.72408 -130.62
2678.678679  0.72570 -130.76
2681.681682  0.72659 -131.23
2684.684685  0.72814 -131.27
2687.687688  0.72793 -131.42
2690.690691  0.72937 -132.07
2693.693694  0.73225 -131.96
2696.696697  0.73577 -132.38
2699.699700  0.73948 -132.81
2702.702703  0.74040 -132.93
2705.705706  0.74257 -133.51
2708.708709  0.74581 -133.96
2711.711712  0.74727 -134.49
2714.714715  0.75035 -134.91
2717.717718  0.74956 -135.43
2720.720721  0.74963 -135.81
2723.723724  0.74865 -136.19
2726.726727  0.74843 -136.78
2729.729730  0.74523 -137.29
2732.732733  0.74356 -137.70
2735.735736  0.74254 -138.46
2738.738739  0.74150 -138.87
2741.741742  0.73814 -139.61
2744.744745  0.73656 -139.23
2747.747748  0.73286 -140.51
2750.750751  0.73132 -140.84
2753.753754  0.72947 -140.95
2756.756757  0.72499 -141.40
2759.759760  0.72095 -141.77
2762.762763  0.71930 -142.22
2765.765766  0.71584 -142.57
2768.768769  0.71437 -142.56
2771.771772  0.71035 -143.28
2774.774775  0.70354 -143.65
2777.777778  0.70143 -143.79
2780.780781  0.69691 -143.98
2783.783784  0.69504 -144.55
2786.786787  0.69016 -144.58
2789.789790  0.68362 -145.14
2792.792793  0.68048 -145.40
2795.795796  0.67882 -145.59
2798.798799  0.67223 -145.84
2801.801802  0.66797 -145.87
2804.804805  0.66356 -146.38
2807.807808  0.65796 -146.06
2810.810811  0.65278 -146.68
2813.813814  0.64880 -146.63
2816.816817  0.64392 -146.55
2819.819820  0.63915 -146.73
2822.822823  0.63372 -146.62
2825.825826  0.62867 -146.60
2828.828829  0.62420 -146.73
2831.831832  0.61949 -146.61
2834.834835  0.61626 -146.32
2837.837838  0.61519 -146.66
2840.840841  0.61036 -146.50
2843.843844  0.60633 -145.80
2846.846847  0.60456 -146.02
2849.849850  0.60297 -145.36
2852.852853  0.59993 -145.47
2855.855856  0.59684 -145.40
2858.858859  0.59634 -145.09
2861.861862  0.59399 -144.64
2864.864865  0.59272 -144.74
2867.867868  0.59110 -144.43
2870.870871  0.59113 -144.17
2873.873874  0.59137 -143.96
2876.876877  0.59018 -143.63
2879.879880  0.59008 -143.35
2882.882883  0.59041 -143.15
2885.885886  0.59176 -143.18
2888.888889  0.59349 -142.86
2891.891892  0.59473 -142.54
2894.894895  0.59577 -142.29
2897.897898  0.59804 -142.31
2900.900901  0.60049 -142.29
2903.903904  0.60300 -142.17
2906.906907  0.60529 -142.10
2909.909910  0.60780 -141.99
2912.912913  0.61141 -142.06
2915.915916  0.61354 -142.04
2918.918919  0.61677 -142.15
2921.921922  0.61911 -142.44
2924.924925  0.62337 -142.35
2927.927928  0.62444 -142.70
2930.930931  0.62775 -142.60
2933.933934  0.63089 -142.99
2936.936937  0.63232 -143.11
2939.939940  0.63514 -143.52
2942.942943  0.63695 -143.78
2945.945946  0.63937 -144.01
2948.948949  0.64244 -144.47
2951.951952  0.64365 -144.65
2954.954955  0.64474 -145.01
2957.957958  0.64711 -145.26
2960.960961  0.64681 -145.71
2963.963964  0.64866 -146.07
2966.966967  0.64848 -146.32
2969.969970  0.64951 -146.67
2972.972973  0.65042 -147.09
2975.975976  0.64825 -147.37
2978.978979  0.64898 -147.58
2981.981982  0.64940 -147.78
2984.984985  0.65068 -147.83
2987.987988  0.65344 -148.40
2990.990991  0.65478 -148.63
2993.993994  0.65745 -149.04
2996.996997  0.65872 -149.45
3000.000000  0.66297 -149.87
3003.003003  0.66185 -150.62
3006.006006  0.66086 -151.26
3009.009009  0.65884 -151.70
3012.012012  0.66107 -152.26
3015.015015  0.65924 -153.12
3018.018018  0.65657 -153.88
3021.021021  0.65451 -154.20
3024.024024  0.64835 -154.89
3027.027027  0.64978 -155.22
3030.030030  0.64387 -156.16
3033.033033  0.64209 -156.23
3036.036036  0.63878 -157.00
3039.039039  0.63583 -157.29
3042.042042  0.62779 -157.80
3045.045045  0.62645 -158.28
3048.048048  0.62271 -158.51
3051.051051  0.61832 -159.68
3054.054054  0.61652 -159.79
3057.057057  0.60969 -160.73
3060.060060  0.60607 -160.97
3063.063063  0.59936 -161.43
