# MHz S MA R 50
!   freq        S11              S21              S12              S22       
1000.000000  0.24853 -156.27  0.94472 -114.24  0.94587 -114.27  0.24876 -156.26
1003.003003  0.25146 -157.35  0.94135 -114.58  0.94203 -114.49  0.25159 -157.32
1006.006006  0.25440 -158.47  0.93747 -114.97  0.93840 -115.00  0.25468 -158.43
1009.009009  0.25586 -159.49  0.93354 -115.20  0.93452 -115.19  0.25616 -159.47
1012.012012  0.26009 -160.54  0.93057 -115.42  0.93179 -115.43  0.25894 -160.54
1015.015015  0.26128 -162.00  0.92787 -115.76  0.92797 -115.70  0.26210 -161.75
1018.018018  0.26308 -162.87  0.92306 -115.95  0.92426 -115.88  0.26411 -163.04
1021.021021  0.26430 -164.10  0.91913 -116.15  0.92058 -116.15  0.26466 -164.23
1024.024024  0.26581 -165.29  0.91749 -116.23  0.91854 -116.29  0.26652 -165.53
1027.027027  0.26749 -166.70  0.91563 -116.42  0.91536 -116.39  0.26670 -166.56
1030.030030  0.26809 -168.10  0.91338 -116.63  0.91397 -116.61  0.26806 -167.99
1033.033033  0.26804 -169.41  0.91036 -116.73  0.91136 -116.72  0.26831 -169.39
1036.036036  0.26814 -170.73  0.91009 -116.84  0.91107 -116.86  0.26839 -170.63
1039.039039  0.26822 -172.01  0.90759 -116.94  0.90804 -117.03  0.26814 -172.00
1042.042042  0.26731 -173.41  0.90702 -117.09  0.90761 -117.10  0.26731 -173.28
1045.045045  0.26788 -174.74  0.90517 -117.16  0.90587 -117.18  0.26757 -174.77
1048.048048  0.26643 -176.31  0.90475 -117.32  0.90590 -117.28  0.26701 -176.24
1051.051051  0.26434 -177.51  0.90497 -117.43  0.90571 -117.52  0.26438 -177.59
1054.054054  0.26397 -178.98  0.90524 -117.53  0.90617 -117.47  0.26429 -178.87
1057.057057  0.26251  179.22  0.90653 -117.56  0.90635 -117.56  0.26235  179.37
1060.060060  0.26107  177.86  0.90678 -117.67  0.90723 -117.71  0.26084  177.97
1063.063063  0.25868  176.36  0.90794 -117.73  0.90909 -117.79  0.25869  176.47
1066.066066  0.25730  174.97  0.91086 -117.93  0.91011 -117.91  0.25595  174.95
1069.069069  0.25427  173.28  0.91236 -118.04  0.91198 -117.93  0.25314  173.64
1072.072072  0.25189  171.72  0.91416 -118.28  0.91441 -118.20  0.25060  171.89
1075.075075  0.24857  170.11  0.91721 -118.41  0.91761 -118.32  0.24768  170.32
1078.078078  0.24532  168.79  0.92001 -118.56  0.91980 -118.60  0.24436  168.85
1081.081081  0.24136  166.88  0.92152 -118.71  0.92302 -118.62  0.24135  167.33
1084.084084  0.23747  165.44  0.92473 -118.96  0.92551 -118.98  0.23776  165.74
1087.087087  0.23332  163.76  0.92857 -119.10  0.92901 -119.12  0.23282  163.93
1090.090090  0.22912  161.97  0.93148 -119.45  0.93205 -119.49  0.22853  162.14
1093.093093  0.22528  160.30  0.93559 -119.70  0.93635 -119.71  0.22428  160.52
1096.096096  0.22136  158.45  0.93842 -120.02  0.93932 -119.99  0.22059  158.71
1099.099099  0.21525  156.87  0.94345 -120.37  0.94326 -120.30  0.21443  157.13
1102.102102  0.21081  154.98  0.94658 -120.75  0.94621 -120.68  0.20866  155.26
1105.105105  0.20464  153.23  0.94927 -121.10  0.95036 -121.15  0.20467  153.32
1108.108108  0.19929  151.49  0.95341 -121.49  0.95505 -121.43  0.19896  151.80
1111.111111  0.19320  149.82  0.95660 -121.82  0.95764 -121.80  0.19308  149.83
1114.114114  0.18891  147.80  0.96085 -122.28  0.96092 -122.33  0.18810  147.99
1117.117117  0.18297  145.89  0.96273 -122.76  0.96358 -122.66  0.18162  146.15
1120.120120  0.17545  144.19  0.96556 -123.15  0.96561 -123.13  0.17498  144.20
1123.123123  0.16949  142.28  0.96779 -123.62  0.96815 -123.52  0.16843  142.42
1126.126126  0.16357  140.27  0.96973 -124.10  0.97072 -124.15  0.16348  140.59
1129.129129  0.15570  138.36  0.97172 -124.42  0.97214 -124.34  0.15515  138.70
1132.132132  0.14991  136.27  0.97360 -125.02  0.97351 -125.07  0.14939  136.38
1135.135135  0.14226  133.77  0.97336 -125.58  0.97471 -125.45  0.14154  134.11
1138.138138  0.13586  131.74  0.97520 -125.86  0.97562 -125.91  0.13513  131.91
1141.141141  0.12882  129.45  0.97608 -126.56  0.97757 -126.54  0.12791  129.74
1144.144144  0.12115  127.26  0.97622 -126.95  0.97642 -126.91  0.12034  127.54
1147.147147  0.11318  125.30  0.97816 -127.39  0.97769 -127.43  0.11240  125.27
1150.150150  0.10700  122.82  0.97712 -128.04  0.97684 -127.90  0.10599  122.95
1153.153153  0.09956  120.68  0.97714 -128.40  0.97700 -128.40  0.09879  120.82
1156.156156  0.09191  118.36  0.97701 -128.98  0.97743 -128.82  0.09103  118.37
1159.159159  0.08441  115.83  0.97688 -129.38  0.97786 -129.42  0.08352  116.13
1162.162162  0.07645  112.54  0.97552 -129.79  0.97681 -129.81  0.07552  112.79
1165.165165  0.06861  109.86  0.97360 -130.17  0.97404 -130.25  0.06821  110.13
1168.168168  0.06107  106.15  0.97352 -130.69  0.97300 -130.62  0.06063  106.44
1171.171171  0.05356  103.13  0.97259 -131.05  0.97246 -130.98  0.05291  102.96
1174.174174  0.04635   98.98  0.97186 -131.49  0.97190 -131.49  0.04557   98.38
1177.177177  0.03932   94.22  0.96950 -131.86  0.97079 -131.89  0.03848   94.51
1180.180180  0.03231   85.11  0.96868 -132.40  0.96830 -132.35  0.03158   85.40
1183.183183  0.02577   75.57  0.96635 -132.65  0.96734 -132.59  0.02588   74.35
1186.186186  0.02034   61.13  0.96609 -133.08  0.96598 -133.12  0.01979   61.35
1189.189189  0.01593   39.25  0.96332 -133.40  0.96411 -133.38  0.01571   37.42
1192.192192  0.01561    9.66  0.96320 -133.82  0.96230 -133.77  0.01549    8.12
1195.195195  0.01675  -14.49  0.96155 -134.11  0.96175 -134.09  0.01785  -18.50
1198.198198  0.02143  -36.53  0.96231 -134.53  0.96215 -134.47  0.02176  -36.14
1201.201201  0.02751  -46.72  0.96137 -134.82  0.96097 -134.83  0.02786  -46.34
1204.204204  0.03257  -55.91  0.95878 -135.13  0.95968 -135.10  0.03315  -55.96
1207.207207  0.03986  -61.97  0.95860 -135.48  0.95921 -135.46  0.03990  -62.45
1210.210210  0.04564  -66.61  0.95932 -135.83  0.95967 -135.76  0.04581  -66.09
1213.213213  0.05249  -71.63  0.95839 -136.03  0.95803 -136.06  0.05284  -70.93
1216.216216  0.05869  -74.79  0.95670 -136.42  0.95839 -136.54  0.05868  -74.45
1219.219219  0.06467  -78.24  0.95785 -136.73  0.95827 -136.71  0.06522  -77.84
1222.222222  0.07006  -81.79  0.95701 -136.98  0.95797 -137.04  0.07084  -81.33
1225.225225  0.07528  -84.09  0.95698 -137.24  0.95781 -137.16  0.07544  -83.65
1228.228228  0.08089  -86.85  0.95758 -137.55  0.95888 -137.70  0.08175  -86.59
1231.231231  0.08612  -89.15  0.95837 -137.88  0.95927 -137.85  0.08622  -89.31
1234.234234  0.09208  -91.75  0.95802 -138.16  0.95800 -138.18  0.09168  -91.84
1237.237237  0.09570  -94.55  0.95779 -138.45  0.95847 -138.47  0.09613  -94.12
1240.240240  0.10102  -96.50  0.96097 -138.75  0.96063 -138.70  0.10127  -96.79
1243.243243  0.10639  -99.46  0.96123 -139.05  0.96239 -139.05  0.10619  -99.47
1246.246246  0.11066 -101.50  0.96063 -139.37  0.96249 -139.37  0.11076 -101.52
1249.249249  0.11463 -103.97  0.96145 -139.70  0.96293 -139.68  0.11489 -104.01
1252.252252  0.11826 -106.36  0.96244 -140.01  0.96289 -140.02  0.11854 -106.27
1255.255255  0.12237 -108.08  0.96331 -140.47  0.96425 -140.44  0.12218 -108.12
1258.258258  0.12552 -110.19  0.96427 -140.82  0.96503 -140.74  0.12571 -110.15
1261.261261  0.12850 -112.14  0.96578 -141.23  0.96665 -141.24  0.12892 -112.10
1264.264264  0.13092 -114.52  0.96868 -141.58  0.96908 -141.60  0.13075 -114.70
1267.267267  0.13339 -116.59  0.96648 -142.09  0.96834 -142.04  0.13340 -116.43
1270.270270  0.13597 -118.71  0.96803 -142.47  0.96823 -142.37  0.13590 -118.61
1273.273273  0.13676 -120.34  0.97028 -142.89  0.97015 -142.78  0.13697 -120.43
1276.276276  0.13846 -122.60  0.96958 -143.32  0.96977 -143.33  0.13857 -122.60
1279.279279  0.14031 -124.65  0.97183 -143.87  0.97187 -143.71  0.14013 -124.56
1282.282282  0.14052 -126.55  0.97209 -144.28  0.97209 -144.20  0.14064 -126.47
1285.285285  0.14125 -128.65  0.97028 -144.73  0.97220 -144.59  0.14137 -128.65
1288.288288  0.14259 -131.10  0.97218 -145.05  0.97267 -145.01  0.14270 -131.13
1291.291291  0.14266 -133.54  0.97263 -145.58  0.97154 -145.49  0.14290 -133.55
1294.294294  0.14279 -135.71  0.97244 -146.01  0.97249 -145.90  0.14287 -135.61
1297.297297  0.14216 -137.83  0.97294 -146.37  0.97439 -146.48  0.14201 -137.77
1300.300300  0.14171 -140.30  0.97253 -146.88  0.97375 -146.84  0.14181 -140.29
1303.303303  0.14108 -142.38  0.97260 -147.21  0.97386 -147.27  0.14037 -142.44
1306.306306  0.13929 -145.01  0.97194 -147.55  0.97306 -147.51  0.13946 -145.04
1309.309309  0.13827 -146.75  0.97323 -148.07  0.97328 -148.07  0.13806 -146.96
1312.312312  0.13631 -149.39  0.97263 -148.53  0.97244 -148.47  0.13621 -149.35
1315.315315  0.13368 -151.53  0.97002 -148.79  0.97035 -148.80  0.13335 -151.45
1318.318318  0.13126 -153.95  0.96988 -149.22  0.97056 -149.33  0.13096 -154.24
1321.321321  0.12876 -156.46  0.96917 -149.71  0.96851 -149.66  0.12860 -156.68
1324.324324  0.12574 -159.04  0.96878 -149.98  0.96867 -150.00  0.12579 -159.23
1327.327327  0.12273 -161.43  0.96598 -150.40  0.96748 -150.36  0.12311 -161.67
1330.330330  0.11932 -164.43  0.96638 -150.78  0.96639 -150.85  0.11914 -164.39
1333.333333  0.11508 -167.31  0.96337 -151.13  0.96540 -150.98  0.11565 -167.64
1336.336336  0.11171 -169.99  0.96299 -151.53  0.96399 -151.60  0.11143 -170.39
1339.339339  0.10791 -173.52  0.96364 -151.80  0.96404 -151.79  0.10758 -174.03
1342.342342  0.10326 -176.65  0.96228 -152.37  0.96193 -152.26  0.10305 -176.91
1345.345345  0.09884  179.78  0.96037 -152.74  0.96195 -152.72  0.09917 -179.71
1348.348348  0.09433  176.59  0.95890 -152.96  0.95946 -153.03  0.09440  176.11
1351.351351  0.08950  172.95  0.95754 -153.52  0.95835 -153.53  0.08969  172.48
1354.354354  0.08586  167.94  0.95753 -153.84  0.95741 -153.71  0.08496  168.79
1357.357357  0.07978  164.25  0.95704 -154.13  0.95694 -154.12  0.08014  163.13
1360.360360  0.07566  158.88  0.95698 -154.43  0.95675 -154.31  0.07466  159.65
1363.363363  0.06979  154.30  0.95508 -154.94  0.95711 -154.87  0.07062  153.65
1366.366366  0.06734  146.84  0.95541 -155.28  0.95516 -155.21  0.06634  147.48
1369.369369  0.06081  141.11  0.95335 -155.64  0.95553 -155.50  0.06167  140.78
1372.372372  0.05622  133.73  0.95323 -156.07  0.95488 -156.05  0.05778  132.70
1375.375375  0.05524  125.06  0.95365 -156.32  0.95469 -156.26  0.05555  124.77
1378.378378  0.05202  115.76  0.95265 -156.72  0.95357 -156.78  0.05241  115.33
1381.381381  0.05092  105.26  0.95152 -157.15  0.95241 -157.02  0.04945  105.24
1384.384384  0.05013   94.55  0.95038 -157.40  0.95126 -157.41  0.04956   94.85
1387.387387  0.05026   83.90  0.95000 -157.62  0.95042 -157.67  0.05042   83.46
1390.390390  0.05219   73.30  0.95050 -158.10  0.95100 -158.12  0.05190   73.21
1393.393393  0.05445   63.48  0.95090 -158.41  0.95106 -158.33  0.05460   63.27
1396.396396  0.05919   54.09  0.95030 -158.79  0.95087 -158.68  0.05895   53.83
1399.399399  0.06368   46.11  0.94995 -159.20  0.94998 -159.24  0.06391   45.88
1402.402402  0.07085   38.48  0.94858 -159.58  0.95003 -159.50  0.07064   37.94
1405.405405  0.07711   32.95  0.94811 -159.89  0.94862 -159.94  0.07698   32.63
1408.408408  0.08338   27.24  0.94756 -160.30  0.94848 -160.31  0.08304   27.02
1411.411411  0.08986   21.93  0.94764 -160.71  0.94877 -160.81  0.09016   21.61
1414.414414  0.09682   16.68  0.94716 -161.20  0.94821 -161.17  0.09663   16.51
1417.417417  0.10360   12.38  0.94694 -161.54  0.94748 -161.54  0.10350   12.08
1420.420420  0.11107    8.09  0.94529 -162.12  0.94589 -162.09  0.11115    7.91
1423.423423  0.11886    4.54  0.94413 -162.43  0.94442 -162.45  0.11892    4.38
1426.426426  0.12604    1.19  0.94391 -162.79  0.94436 -162.94  0.12604    0.93
1429.429429  0.13422   -2.12  0.94162 -163.20  0.94170 -163.13  0.13406   -2.08
1432.432432  0.14201   -5.04  0.93945 -163.75  0.94013 -163.75  0.14220   -5.36
1435.435435  0.14943   -7.89  0.93838 -164.11  0.93893 -164.07  0.14968   -8.03
1438.438438  0.15704  -10.75  0.93727 -164.42  0.93762 -164.48  0.15698  -10.74
1441.441441  0.16493  -13.43  0.93510 -164.84  0.93646 -164.80  0.16527  -13.33
1444.444444  0.17220  -16.01  0.93331 -165.24  0.93381 -165.14  0.17240  -15.83
1447.447447  0.17983  -18.24  0.93162 -165.44  0.93154 -165.57  0.17963  -18.73
1450.450450  0.18738  -20.95  0.92827 -165.92  0.92959 -165.85  0.18811  -20.84
1453.453453  0.19611  -22.87  0.92732 -166.31  0.92798 -166.30  0.19594  -22.96
1456.456456  0.20252  -25.33  0.92481 -166.49  0.92576 -166.37  0.20245  -25.36
1459.459459  0.20926  -27.52  0.92315 -166.95  0.92421 -166.90  0.20972  -27.54
1462.462462  0.21628  -29.54  0.92031 -167.07  0.92151 -167.02  0.21624  -29.64
1465.465465  0.22301  -31.67  0.91811 -167.31  0.91918 -167.40  0.22316  -31.78
1468.468468  0.22981  -33.49  0.91718 -167.62  0.91691 -167.69  0.23008  -33.86
1471.471471  0.23523  -35.92  0.91598 -168.08  0.91662 -167.96  0.23663  -35.82
1474.474474  0.24217  -37.62  0.91501 -168.34  0.91491 -168.18  0.24110  -37.87
1477.477477  0.24638  -39.53  0.91177 -168.46  0.91251 -168.37  0.24700  -39.73
1480.480480  0.25352  -41.81  0.90964 -168.71  0.91069 -168.79  0.25290  -41.46
1483.483483  0.25840  -43.50  0.90802 -168.83  0.90894 -168.80  0.25878  -43.80
1486.486486  0.26323  -45.33  0.90736 -169.27  0.90774 -169.31  0.26199  -45.08
1489.489489  0.26783  -47.17  0.90656 -169.53  0.90685 -169.39  0.26835  -47.15
1492.492492  0.27180  -48.73  0.90700 -169.69  0.90739 -169.65  0.27255  -48.70
1495.495495  0.27582  -50.32  0.90488 -169.89  0.90509 -169.96  0.27694  -50.66
1498.498498  0.28009  -52.25  0.90432 -170.11  0.90441 -170.06  0.28094  -52.31
1501.501502  0.28453  -54.04  0.90333 -170.33  0.90441 -170.33  0.28468  -54.06
1504.504505  0.28746  -55.60  0.90219 -170.71  0.90309 -170.58  0.28734  -55.55
1507.507508  0.29049  -57.12  0.90188 -170.79  0.90351 -170.88  0.29114  -57.36
1510.510511  0.29309  -58.91  0.90319 -171.02  0.90380 -170.99  0.29377  -58.91
1513.513514  0.29628  -60.41  0.90314 -171.22  0.90427 -171.30  0.29704  -60.40
1516.516517  0.29912  -62.12  0.90350 -171.47  0.90413 -171.45  0.29808  -62.13
1519.519520  0.30023  -63.69  0.90416 -171.60  0.90473 -171.69  0.30037  -63.64
1522.522523  0.30241  -65.33  0.90541 -171.99  0.90614 -171.95  0.30203  -65.31
1525.525526  0.30428  -66.78  0.90682 -172.13  0.90752 -172.10  0.30423  -66.69
1528.528529  0.30552  -68.30  0.90629 -172.44  0.90722 -172.40  0.30606  -68.13
1531.531532  0.30567  -69.81  0.90957 -172.56  0.91044 -172.46  0.30590  -69.73
1534.534535  0.30705  -71.30  0.91042 -172.75  0.91164 -172.92  0.30758  -71.32
1537.537538  0.30715  -72.96  0.91079 -172.97  0.91125 -172.78  0.30730  -72.80
1540.540541  0.30735  -74.33  0.91251 -173.50  0.91350 -173.34  0.30794  -74.23
1543.543544  0.30874  -75.50  0.91559 -173.51  0.91655 -173.46  0.30842  -75.53
1546.546547  0.30788  -76.94  0.91757 -173.79  0.91734 -173.78  0.30702  -76.82
1549.549550  0.30753  -78.23  0.92030 -174.16  0.92087 -174.13  0.30745  -78.27
1552.552553  0.30535  -79.69  0.92252 -174.36  0.92285 -174.33  0.30566  -79.56
1555.555556  0.30394  -80.79  0.92467 -174.66  0.92593 -174.69  0.30430  -80.73
1558.558559  0.30164  -81.97  0.92713 -175.05  0.92764 -174.93  0.30218  -81.98
1561.561562  0.29985  -82.90  0.92902 -175.32  0.92926 -175.49  0.29965  -82.81
1564.564565  0.29754  -84.03  0.93160 -175.69  0.93259 -175.67  0.29733  -83.91
1567.567568  0.29588  -85.22  0.93459 -176.18  0.93551 -176.11  0.29422  -84.96
1570.570571  0.29219  -86.30  0.93670 -176.44  0.93807 -176.51  0.29256  -86.38
1573.573574  0.28975  -87.23  0.93923 -176.92  0.94136 -176.86  0.29016  -87.16
1576.576577  0.28555  -88.03  0.94256 -177.37  0.94420 -177.44  0.28627  -88.03
1579.579580  0.28170  -88.83  0.94366 -177.64  0.94437 -177.51  0.28235  -88.89
1582.582583  0.27903  -89.76  0.94795 -178.38  0.94836 -178.29  0.27854  -89.67
1585.585586  0.27423  -90.59  0.95024 -178.74  0.95059 -178.61  0.27469  -90.59
1588.588589  0.27075  -91.19  0.95046 -179.24  0.95310 -179.22  0.27056  -91.09
1591.591592  0.26565  -91.87  0.95403 -179.61  0.95451 -179.68  0.26501  -91.92
1594.594595  0.26017  -92.44  0.95628  179.83  0.95615  179.87  0.26003  -92.35
1597.597598  0.25511  -92.91  0.95749  179.35  0.95962  179.38  0.25512  -92.81
1600.600601  0.25031  -93.13  0.95874  178.89  0.96033  178.95  0.25026  -92.95
1603.603604  0.24421  -93.44  0.96124  178.29  0.96207  178.32  0.24407  -93.34
1606.606607  0.23894  -93.58  0.96257  177.71  0.96360  177.77  0.23817  -93.56
1609.609610  0.23333  -93.62  0.96396  177.16  0.96478  177.12  0.23298  -93.52
1612.612613  0.22786  -93.38  0.96426  176.58  0.96447  176.84  0.22716  -93.29
1615.615616  0.22177  -92.89  0.96574  176.14  0.96689  176.02  0.22125  -92.76
1618.618619  0.21705  -92.28  0.96625  175.45  0.96733  175.51  0.21640  -92.27
1621.621622  0.21165  -91.64  0.96830  175.06  0.96960  175.13  0.21136  -91.46
1624.624625  0.20679  -90.89  0.96695  174.54  0.96941  174.44  0.20588  -90.81
1627.627628  0.20205  -89.79  0.96860  173.80  0.96855  173.98  0.20199  -89.58
1630.630631  0.19722  -88.54  0.96947  173.28  0.96817  173.12  0.19692  -88.28
1633.633634  0.19333  -86.92  0.96869  172.72  0.96798  172.88  0.19291  -86.73
1636.636637  0.19121  -85.18  0.96679  172.05  0.96841  172.04  0.19099  -84.99
1639.639640  0.18729  -83.68  0.96405  171.51  0.96567  171.60  0.18737  -83.47
1642.642643  0.18584  -81.48  0.96450  170.99  0.96566  171.05  0.18557  -81.26
1645.645646  0.18518  -79.53  0.96342  170.33  0.96447  170.32  0.18521  -79.31
1648.648649  0.18495  -77.35  0.96084  169.75  0.96177  169.64  0.18434  -77.15
1651.651652  0.18533  -74.94  0.96011  169.02  0.96087  169.07  0.18520  -74.77
1654.654655  0.18588  -72.90  0.95570  168.43  0.95763  168.61  0.18599  -72.52
1657.657658  0.18883  -70.64  0.95514  168.01  0.95581  167.87  0.18879  -70.46
1660.660661  0.19181  -68.20  0.95111  167.36  0.95198  167.45  0.19197  -68.05
1663.663664  0.19529  -66.42  0.94773  166.68  0.94961  166.62  0.19600  -66.15
1666.666667  0.20054  -64.62  0.94442  166.11  0.94584  166.24  0.20106  -64.39
1669.669670  0.20692  -62.84  0.94054  165.65  0.94181  165.49  0.20712  -62.62
1672.672673  0.21244  -61.36  0.93623  165.08  0.93791  164.98  0.21248  -61.25
1675.675676  0.22017  -60.06  0.93310  164.49  0.93391  164.59  0.21983  -59.74
1678.678679  0.22748  -58.91  0.92831  164.05  0.92935  163.91  0.22683  -58.76
1681.681682  0.23517  -58.01  0.92307  163.40  0.92408  163.58  0.23479  -57.69
1684.684685  0.24430  -57.05  0.91913  163.11  0.91967  162.91  0.24417  -56.98
1687.687688  0.25164  -56.54  0.91442  162.48  0.91575  162.58  0.25185  -56.38
1690.690691  0.26182  -56.04  0.90810  162.00  0.90927  162.08  0.26242  -55.81
1693.693694  0.27095  -55.72  0.90368  161.64  0.90466  161.60  0.27079  -55.69
1696.696697  0.28005  -55.52  0.89742  161.12  0.89964  161.11  0.28066  -55.22
1699.699700  0.28970  -55.70  0.89453  160.83  0.89413  160.70  0.28932  -55.41
1702.702703  0.29929  -55.62  0.88836  160.42  0.88856  160.59  0.29962  -55.50
1705.705706  0.30900  -56.10  0.88298  160.01  0.88275  160.09  0.30932  -55.62
1708.708709  0.32003  -56.31  0.87870  159.71  0.88003  159.79  0.32037  -56.26
1711.711712  0.32883  -56.64  0.87202  159.46  0.87323  159.43  0.32898  -56.59
1714.714715  0.33777  -57.03  0.86799  159.10  0.86808  159.32  0.33835  -56.85
1717.717718  0.34764  -57.54  0.86203  158.97  0.86314  159.00  0.34827  -57.45
1720.720721  0.35678  -58.13  0.85715  158.68  0.85835  158.67  0.35756  -58.14
1723.723724  0.36701  -58.78  0.85225  158.46  0.85311  158.61  0.36712  -58.57
1726.726727  0.37564  -59.36  0.84729  158.22  0.84881  158.25  0.37602  -59.44
1729.729730  0.38458  -60.08  0.84362  158.13  0.84471  158.16  0.38476  -59.99
1732.732733  0.39390  -60.92  0.84001  157.97  0.84137  157.89  0.39411  -60.97
1735.735736  0.40208  -61.79  0.83560  157.69  0.83691  157.88  0.40330  -61.62
1738.738739  0.41081  -62.55  0.83179  157.64  0.83292  157.61  0.41055  -62.36
1741.741742  0.41890  -63.42  0.82947  157.57  0.83051  157.56  0.41876  -63.31
