# MHz S MA R 50
!   freq        S11       
1000.000000  0.24899 -156.22
1003.003003  0.25174 -157.14
1006.006006  0.25480 -158.43
1009.009009  0.25633 -159.23
1012.012012  0.25997 -160.35
1015.015015  0.26166 -161.78
1018.018018  0.26365 -162.70
1021.021021  0.26589 -164.21
1024.024024  0.26630 -165.14
1027.027027  0.26777 -166.58
1030.030030  0.26749 -167.78
1033.033033  0.26822 -169.12
1036.036036  0.26821 -170.54
1039.039039  0.26827 -171.83
1042.042042  0.26722 -173.28
1045.045045  0.26784 -174.49
1048.048048  0.26649 -176.12
1051.051051  0.26489 -177.44
1054.054054  0.26404 -178.81
1057.057057  0.26252  179.67
1060.060060  0.25987  178.18
1063.063063  0.25875  176.58
1066.066066  0.25714  175.12
1069.069069  0.25371  173.57
1072.072072  0.25088  172.00
1075.075075  0.24759  170.67
1078.078078  0.24516  168.95
1081.081081  0.24101  167.26
1084.084084  0.23710  165.71
1087.087087  0.23333  164.12
1090.090090  0.22975  162.19
1093.093093  0.22393  160.53
1096.096096  0.21901  158.86
1099.099099  0.21517  157.12
1102.102102  0.20947  155.25
1105.105105  0.20503  153.34
1108.108108  0.19914  151.70
1111.111111  0.19229  149.94
1114.114114  0.18743  148.30
1117.117117  0.18082  146.21
1120.120120  0.17482  144.35
1123.123123  0.16783  142.79
1126.126126  0.16223  140.56
1129.129129  0.15477  138.64
1132.132132  0.14892  136.55
1135.135135  0.14117  134.11
1138.138138  0.13453  132.06
1141.141141  0.12757  129.71
1144.144144  0.11994  127.78
1147.147147  0.11207  125.39
1150.150150  0.10564  123.19
1153.153153  0.09821  120.93
1156.156156  0.09063  118.46
1159.159159  0.08303  116.19
1162.162162  0.07553  112.63
1165.165165  0.06747  110.18
1168.168168  0.06029  106.35
1171.171171  0.05218  103.28
1174.174174  0.04545   98.53
1177.177177  0.03832   94.63
1180.180180  0.03103   84.68
1183.183183  0.02526   74.06
1186.186186  0.01992   59.19
1189.189189  0.01565   38.54
1192.192192  0.01486    7.30
1195.195195  0.01738  -17.21
1198.198198  0.02231  -36.56
1201.201201  0.02780  -46.61
1204.204204  0.03360  -56.05
1207.207207  0.04030  -62.57
1210.210210  0.04624  -66.13
1213.213213  0.05338  -71.84
1216.216216  0.05969  -74.38
1219.219219  0.06496  -77.74
1222.222222  0.07072  -81.42
1225.225225  0.07583  -84.26
1228.228228  0.08142  -86.64
1231.231231  0.08618  -89.07
1234.234234  0.09195  -91.93
1237.237237  0.09642  -94.39
1240.240240  0.10132  -96.51
1243.243243  0.10639  -99.50
1246.246246  0.11100 -101.69
1249.249249  0.11483 -104.05
1252.252252  0.11842 -106.26
1255.255255  0.12217 -108.10
1258.258258  0.12567 -110.18
1261.261261  0.12873 -112.18
1264.264264  0.13080 -114.66
1267.267267  0.13342 -116.60
1270.270270  0.13594 -118.78
1273.273273  0.13706 -120.44
1276.276276  0.13859 -122.60
1279.279279  0.14024 -124.77
1282.282282  0.14045 -126.53
1285.285285  0.14117 -128.64
1288.288288  0.14185 -131.14
1291.291291  0.14301 -133.60
1294.294294  0.14280 -135.69
1297.297297  0.14286 -137.98
1300.300300  0.14131 -140.36
1303.303303  0.14076 -142.47
1306.306306  0.13949 -144.75
1309.309309  0.13851 -146.46
1312.312312  0.13683 -149.43
1315.315315  0.13309 -152.04
1318.318318  0.13148 -154.10
1321.321321  0.12874 -156.71
1324.324324  0.12624 -159.27
1327.327327  0.12324 -161.93
1330.330330  0.11949 -164.70
1333.333333  0.11582 -167.66
1336.336336  0.11160 -170.40
1339.339339  0.10807 -173.51
1342.342342  0.10328 -177.36
1345.345345  0.09886 -179.92
1348.348348  0.09455  176.33
1351.351351  0.08989  173.04
1354.354354  0.08532  168.82
1357.357357  0.08077  163.03
1360.360360  0.07552  159.10
1363.363363  0.06975  154.24
1366.366366  0.06745  146.68
1369.369369  0.06115  141.18
1372.372372  0.05740  133.37
1375.375375  0.05415  125.24
1378.378378  0.05172  115.48
1381.381381  0.04992  105.40
1384.384384  0.04981   95.35
1387.387387  0.05029   83.66
1390.390390  0.05199   73.39
1393.393393  0.05508   63.81
1396.396396  0.05915   54.55
1399.399399  0.06368   45.84
1402.402402  0.07028   38.61
1405.405405  0.07672   32.66
1408.408408  0.08312   27.05
1411.411411  0.08982   21.87
1414.414414  0.09679   16.58
1417.417417  0.10310   12.06
1420.420420  0.11080    7.79
1423.423423  0.11898    4.30
1426.426426  0.12621    0.94
1429.429429  0.13398   -2.16
1432.432432  0.14243   -5.11
1435.435435  0.15002   -7.91
1438.438438  0.15698  -10.96
1441.441441  0.16544  -13.23
1444.444444  0.17245  -15.82
1447.447447  0.18049  -18.28
1450.450450  0.18743  -20.85
1453.453453  0.19553  -23.33
1456.456456  0.20275  -25.43
1459.459459  0.20972  -27.76
1462.462462  0.21732  -29.86
1465.465465  0.22257  -31.91
1468.468468  0.23011  -33.82
1471.471471  0.23627  -36.09
1474.474474  0.24197  -37.66
1477.477477  0.24797  -39.86
1480.480480  0.25408  -41.82
1483.483483  0.25909  -43.83
1486.486486  0.26310  -45.14
1489.489489  0.26884  -47.25
1492.492492  0.27332  -49.04
1495.495495  0.27751  -50.68
1498.498498  0.28119  -52.50
1501.501502  0.28502  -54.01
1504.504505  0.28803  -55.54
1507.507508  0.29067  -57.40
1510.510511  0.29402  -59.01
1513.513514  0.29752  -60.57
1516.516517  0.29964  -61.96
1519.519520  0.30083  -63.65
1522.522523  0.30211  -65.22
1525.525526  0.30458  -66.80
1528.528529  0.30599  -68.25
1531.531532  0.30619  -69.81
1534.534535  0.30726  -71.28
1537.537538  0.30794  -72.70
1540.540541  0.30899  -74.19
1543.543544  0.30842  -75.43
1546.546547  0.30869  -76.88
1549.549550  0.30683  -78.14
1552.552553  0.30454  -79.44
1555.555556  0.30392  -80.67
1558.558559  0.30282  -82.00
1561.561562  0.29944  -82.79
1564.564565  0.29781  -84.03
1567.567568  0.29570  -84.98
1570.570571  0.29219  -86.29
1573.573574  0.28917  -87.03
1576.576577  0.28624  -88.01
1579.579580  0.28173  -88.79
1582.582583  0.27835  -89.63
1585.585586  0.27448  -90.59
1588.588589  0.27010  -91.09
1591.591592  0.26503  -91.75
1594.594595  0.25966  -92.30
1597.597598  0.25491  -92.81
1600.600601  0.24993  -92.97
1603.603604  0.24391  -93.23
1606.606607  0.23764  -93.65
1609.609610  0.23203  -93.48
1612.612613  0.22692  -93.17
1615.615616  0.22059  -92.86
1618.618619  0.21619  -92.09
1621.621622  0.21095  -91.44
1624.624625  0.20572  -90.72
1627.627628  0.20136  -89.53
1630.630631  0.19648  -88.24
1633.633634  0.19254  -86.66
1636.636637  0.19001  -85.02
1639.639640  0.18697  -83.40
1642.642643  0.18606  -81.20
1645.645646  0.18485  -79.15
1648.648649  0.18448  -76.98
1651.651652  0.18486  -74.67
1654.654655  0.18547  -72.48
1657.657658  0.18762  -70.23
1660.660661  0.19143  -67.91
1663.663664  0.19496  -65.99
1666.666667  0.19999  -64.21
1669.669670  0.20642  -62.39
1672.672673  0.21231  -60.90
1675.675676  0.21963  -59.67
1678.678679  0.22640  -58.44
1681.681682  0.23473  -57.50
1684.684685  0.24370  -56.84
1687.687688  0.25167  -56.11
1690.690691  0.26098  -55.66
1693.693694  0.27058  -55.23
1696.696697  0.27963  -55.15
1699.699700  0.28946  -55.15
1702.702703  0.29973  -55.75
1705.705706  0.30901  -55.58
1708.708709  0.32000  -56.26
1711.711712  0.32899  -56.54
1714.714715  0.33816  -56.66
1717.717718  0.34787  -57.56
1720.720721  0.35795  -57.95
1723.723724  0.36628  -58.66
1726.726727  0.37564  -59.27
1729.729730  0.38538  -59.99
1732.732733  0.39416  -60.75
1735.735736  0.40241  -61.57
1738.738739  0.41068  -62.40
1741.741742  0.41943  -63.10
1744.744745  0.42643  -64.08
1747.747748  0.43481  -64.98
1750.750751  0.44148  -65.96
1753.753754  0.44796  -66.84
1756.756757  0.45537  -67.82
1759.759760  0.46037  -68.59
1762.762763  0.46758  -69.54
1765.765766  0.47279  -70.46
1768.768769  0.47793  -71.48
1771.771772  0.48366  -72.54
1774.774775  0.48844  -73.36
1777.777778  0.49300  -74.36
1780.780781  0.49675  -75.28
1783.783784  0.50052  -76.12
1786.786787  0.50559  -77.05
1789.789790  0.50826  -78.15
1792.792793  0.51248  -78.90
1795.795796  0.51457  -79.72
1798.798799  0.51696  -80.66
1801.801802  0.51926  -81.52
1804.804805  0.52072  -82.32
1807.807808  0.52441  -83.13
1810.810811  0.52500  -83.90
1813.813814  0.52683  -85.06
1816.816817  0.52576  -85.92
1819.819820  0.52827  -86.74
1822.822823  0.52794  -87.69
1825.825826  0.52826  -88.32
1828.828829  0.52757  -89.24
1831.831832  0.52724  -89.92
1834.834835  0.52680  -90.80
1837.837838  0.52515  -91.75
1840.840841  0.52452  -92.62
1843.843844  0.52334  -93.26
1846.846847  0.52146  -94.13
1849.849850  0.51907  -94.63
1852.852853  0.51750  -95.50
1855.855856  0.51549  -96.30
1858.858859  0.51231  -96.70
1861.861862  0.50829  -97.48
1864.864865  0.50592  -97.98
1867.867868  0.50339  -98.81
1870.870871  0.49868  -99.13
1873.873874  0.49514  -99.82
1876.876877  0.49002 -100.15
1879.879880  0.48520 -100.56
1882.882883  0.48095 -101.03
1885.885886  0.47649 -101.25
1888.888889  0.47148 -101.61
1891.891892  0.46758 -101.86
1894.894895  0.46250 -102.02
1897.897898  0.45835 -102.16
1900.900901  0.45224 -102.25
1903.903904  0.44722 -102.24
1906.906907  0.44251 -102.24
1909.909910  0.43820 -102.07
1912.912913  0.43323 -101.86
1915.915916  0.42997 -101.74
1918.918919  0.42506 -101.37
1921.921922  0.42179 -100.89
1924.924925  0.41715 -100.45
1927.927928  0.41429 -100.01
1930.930931  0.41214  -99.44
1933.933934  0.40896  -98.72
1936.936937  0.40866  -98.10
1939.939940  0.40613  -97.39
1942.942943  0.40581  -96.73
1945.945946  0.40560  -95.66
1948.948949  0.40635  -95.11
1951.951952  0.40822  -94.08
1954.954955  0.41015  -93.40
1957.957958  0.41221  -92.73
1960.960961  0.41536  -91.92
1963.963964  0.42001  -91.17
1966.966967  0.42334  -90.63
1969.969970  0.42896  -90.19
1972.972973  0.43421  -89.62
1975.975976  0.43940  -89.23
1978.978979  0.44662  -88.89
1981.981982  0.45331  -88.58
1984.984985  0.45981  -88.48
1987.987988  0.46634  -88.11
1990.990991  0.47333  -88.12
1993.993994  0.48078  -88.00
1996.996997  0.48817  -87.99
2000.000000  0.49539  -87.89
2003.003003  0.50406  -88.35
2006.006006  0.51224  -88.49
2009.009009  0.51930  -88.52
2012.012012  0.52621  -88.63
2015.015015  0.53319  -89.04
2018.018018  0.54084  -89.37
2021.021021  0.54877  -89.81
2024.024024  0.55498  -90.24
2027.027027  0.56189  -90.75
2030.030030  0.56873  -91.02
2033.033033  0.57322  -91.57
2036.036036  0.57922  -92.05
2039.039039  0.58768  -92.73
2042.042042  0.59053  -93.17
2045.045045  0.59800  -93.81
2048.048048  0.60315  -94.33
2051.051051  0.60764  -94.94
2054.054054  0.61170  -95.27
2057.057057  0.61562  -96.12
2060.060060  0.62049  -96.56
2063.063063  0.62511  -97.17
2066.066066  0.62863  -97.82
2069.069069  0.63015  -98.46
2072.072072  0.63477  -99.11
2075.075075  0.63757  -99.47
2078.078078  0.64118 -100.41
2081.081081  0.64227 -100.89
2084.084084  0.64520 -101.57
2087.087087  0.64522 -102.16
2090.090090  0.64817 -102.82
2093.093093  0.64892 -103.58
2096.096096  0.64923 -103.89
2099.099099  0.65230 -104.58
2102.102102  0.65152 -105.28
2105.105105  0.65378 -105.76
2108.108108  0.65468 -106.41
2111.111111  0.65621 -106.94
2114.114114  0.65616 -107.64
2117.117117  0.65598 -108.13
2120.120120  0.65751 -108.82
2123.123123  0.65719 -109.41
2126.126126  0.65729 -110.14
2129.129129  0.65711 -110.57
2132.132132  0.65529 -111.19
2135.135135  0.65592 -111.74
2138.138138  0.65288 -112.45
2141.141141  0.65248 -113.15
2144.144144  0.64950 -113.52
2147.147147  0.64841 -114.24
2150.150150  0.64624 -114.61
2153.153153  0.64257 -115.31
2156.156156  0.64130 -115.67
2159.159159  0.63868 -116.45
2162.162162  0.63416 -116.85
2165.165165  0.62997 -116.99
2168.168168  0.62791 -117.82
2171.171171  0.62318 -117.98
2174.174174  0.61901 -118.45
2177.177177  0.61522 -118.75
2180.180180  0.61029 -119.12
2183.183183  0.60676 -119.52
2186.186186  0.60232 -119.47
2189.189189  0.59806 -119.93
2192.192192  0.59234 -120.03
2195.195195  0.58724 -120.22
2198.198198  0.58284 -120.20
2201.201201  0.57951 -120.41
2204.204204  0.57413 -120.38
2207.207207  0.56869 -120.42
2210.210210  0.56412 -120.43
2213.213213  0.56031 -120.38
2216.216216  0.55621 -120.30
2219.219219  0.55234 -119.96
2222.222222  0.54728 -119.88
2225.225225  0.54416 -119.55
2228.228228  0.54133 -119.50
2231.231231  0.53719 -119.05
2234.234234  0.53477 -118.52
2237.237237  0.53323 -118.13
2240.240240  0.53082 -117.67
2243.243243  0.53089 -117.53
2246.246246  0.52914 -116.86
2249.249249  0.52948 -116.39
2252.252252  0.52972 -115.77
2255.255255  0.53015 -115.18
2258.258258  0.53333 -115.00
2261.261261  0.53566 -114.52
2264.264264  0.53870 -114.18
2267.267267  0.54101 -113.77
2270.270270  0.54529 -113.46
2273.273273  0.54891 -112.92
2276.276276  0.55258 -112.90
2279.279279  0.55703 -112.73
2282.282282  0.56150 -112.36
2285.285285  0.56733 -112.43
2288.288288  0.57190 -112.25
2291.291291  0.57745 -112.13
2294.294294  0.58236 -112.09
2297.297297  0.58823 -112.34
2300.300300  0.59365 -112.08
2303.303303  0.59923 -112.31
2306.306306  0.60461 -112.48
2309.309309  0.60962 -112.47
2312.312312  0.61602 -112.93
2315.315315  0.62056 -113.02
2318.318318  0.62735 -113.35
2321.321321  0.63240 -113.39
2324.324324  0.63679 -113.76
2327.327327  0.64212 -114.26
2330.330330  0.64577 -114.51
2333.333333  0.65113 -114.92
2336.336336  0.65544 -115.12
2339.339339  0.65864 -115.55
2342.342342  0.66403 -116.07
2345.345345  0.66787 -116.56
2348.348348  0.67036 -116.94
2351.351351  0.67535 -117.55
2354.354354  0.67689 -117.84
2357.357357  0.68054 -118.34
2360.360360  0.68387 -118.88
2363.363363  0.68545 -119.32
2366.366366  0.68948 -119.84
2369.369369  0.69105 -120.29
2372.372372  0.69382 -120.82
2375.375375  0.69422 -121.30
2378.378378  0.69513 -121.82
2381.381381  0.69528 -122.32
2384.384384  0.69683 -122.67
2387.387387  0.69807 -123.39
2390.390390  0.69898 -123.67
2393.393393  0.69971 -124.11
2396.396396  0.69915 -124.31
2399.399399  0.70117 -125.09
2402.402402  0.70254 -125.57
2405.405405  0.70257 -125.80
2408.408408  0.70438 -126.30
2411.411411  0.70308 -126.87
2414.414414  0.70584 -127.52
2417.417417  0.70565 -127.86
2420.420420  0.70701 -128.67
2423.423423  0.70421 -128.98
2426.426426  0.70525 -129.99
2429.429429  0.70397 -130.07
2432.432432  0.70314 -130.74
2435.435435  0.70127 -131.40
2438.438438  0.69843 -131.92
2441.441441  0.69750 -132.53
2444.444444  0.69224 -132.78
2447.447447  0.69095 -133.59
2450.450450  0.68891 -134.03
2453.453453  0.68636 -134.74
2456.456456  0.68123 -134.92
2459.459459  0.67792 -135.51
2462.462462  0.67335 -135.86
2465.465465  0.67038 -136.15
2468.468468  0.66592 -136.45
2471.471471  0.66272 -136.96
2474.474474  0.65662 -137.48
2477.477477  0.65244 -137.42
2480.480480  0.64922 -137.89
2483.483483  0.64428 -138.54
2486.486486  0.63988 -138.42
2489.489489  0.63449 -138.73
2492.492492  0.62767 -138.86
2495.495495  0.62531 -139.37
2498.498498  0.61803 -139.37
2501.501502  0.61408 -139.56
2504.504505  0.60888 -139.46
2507.507508  0.60196 -139.55
2510.510511  0.59777 -139.50
2513.513514  0.59308 -139.45
2516.516517  0.58864 -139.70
2519.519520  0.58296 -139.38
2522.522523  0.57883 -139.49
2525.525526  0.57477 -139.15
2528.528529  0.56963 -138.87
2531.531532  0.56630 -138.60
2534.534535  0.56232 -138.31
2537.537538  0.55984 -137.90
2540.540541  0.55838 -137.34
2543.543544  0.55511 -137.22
2546.546547  0.55444 -136.92
2549.549550  0.55446 -136.57
2552.552553  0.55337 -135.92
2555.555556  0.55441 -135.66
2558.558559  0.55476 -135.42
2561.561562  0.55550 -135.05
2564.564565  0.55687 -134.82
2567.567568  0.55826 -134.35
2570.570571  0.56081 -134.22
2573.573574  0.56426 -133.96
2576.576577  0.56747 -133.74
2579.579580  0.56914 -133.31
2582.582583  0.57204 -133.32
2585.585586  0.57686 -133.14
2588.588589  0.58054 -132.89
2591.591592  0.58431 -133.01
2594.594595  0.58802 -132.70
2597.597598  0.59256 -132.84
2600.600601  0.59658 -132.76
2603.603604  0.60190 -133.03
2606.606607  0.60563 -132.98
2609.609610  0.61096 -133.17
2612.612613  0.61450 -133.34
2615.615616  0.61877 -133.40
2618.618619  0.62384 -133.88
2621.621622  0.62862 -133.88
2624.624625  0.63228 -134.41
2627.627628  0.63604 -134.58
2630.630631  0.64044 -134.93
2633.633634  0.64413 -135.39
2636.636637  0.64744 -135.66
2639.639640  0.65069 -135.78
2642.642643  0.65458 -136.44
2645.645646  0.65879 -137.11
2648.648649  0.66056 -137.30
2651.651652  0.66355 -137.67
2654.654655  0.66502 -138.08
2657.657658  0.66753 -138.96
2660.660661  0.66959 -139.26
2663.663664  0.67009 -139.63
2666.666667  0.67135 -139.98
2669.669670  0.67392 -140.47
2672.672673  0.67183 -141.04
2675.675676  0.67162 -141.44
2678.678679  0.67382 -142.00
2681.681682  0.67276 -142.39
2684.684685  0.67448 -142.79
2687.687688  0.67358 -142.99
2690.690691  0.67637 -143.56
2693.693694  0.67773 -144.11
2696.696697  0.67873 -144.32
2699.699700  0.68086 -144.89
2702.702703  0.68187 -145.37
2705.705706  0.68291 -145.99
2708.708709  0.68330 -146.43
2711.711712  0.68445 -147.32
2714.714715  0.68335 -147.83
2717.717718  0.68126 -148.41
2720.720721  0.68062 -149.20
2723.723724  0.67684 -149.27
2726.726727  0.67609 -150.44
2729.729730  0.67279 -150.69
2732.732733  0.66958 -151.48
2735.735736  0.66598 -151.97
2738.738739  0.66336 -152.66
2741.741742  0.66116 -153.48
2744.744745  0.65672 -153.35
2747.747748  0.65295 -154.62
2750.750751  0.64904 -154.91
2753.753754  0.64511 -155.56
2756.756757  0.64068 -155.86
2759.759760  0.63660 -156.52
2762.762763  0.63163 -156.57
2765.765766  0.62742 -156.89
2768.768769  0.62217 -157.76
2771.771772  0.61766 -158.05
2774.774775  0.61149 -158.71
2777.777778  0.60651 -158.62
2780.780781  0.59958 -159.22
2783.783784  0.59653 -159.62
2786.786787  0.58974 -159.98
2789.789790  0.58177 -160.51
2792.792793  0.57686 -160.49
2795.795796  0.57139 -161.01
2798.798799  0.56482 -160.63
2801.801802  0.55711 -161.10
2804.804805  0.55287 -161.29
2807.807808  0.54434 -161.65
2810.810811  0.53934 -161.78
2813.813814  0.53385 -161.69
2816.816817  0.52760 -161.74
2819.819820  0.52237 -161.55
2822.822823  0.51640 -161.81
2825.825826  0.51127 -161.41
2828.828829  0.50476 -161.29
2831.831832  0.49960 -160.84
2834.834835  0.49461 -160.53
2837.837838  0.49241 -160.43
2840.840841  0.48822 -159.79
2843.843844  0.48548 -159.66
2846.846847  0.48313 -158.96
2849.849850  0.48178 -158.76
2852.852853  0.47816 -158.32
2855.855856  0.47801 -158.01
2858.858859  0.47591 -157.59
2861.861862  0.47433 -156.82
2864.864865  0.47546 -156.72
2867.867868  0.47374 -156.13
2870.870871  0.47568 -156.05
2873.873874  0.47597 -155.62
2876.876877  0.47693 -155.17
2879.879880  0.47844 -154.93
2882.882883  0.47992 -154.79
2885.885886  0.48229 -154.83
2888.888889  0.48452 -154.57
2891.891892  0.48778 -154.31
2894.894895  0.48923 -154.01
2897.897898  0.49200 -154.27
2900.900901  0.49525 -154.11
2903.903904  0.49861 -154.27
2906.906907  0.50177 -154.36
2909.909910  0.50510 -154.53
2912.912913  0.50821 -154.64
2915.915916  0.51099 -154.68
2918.918919  0.51404 -155.11
2921.921922  0.51692 -155.43
2924.924925  0.52030 -155.60
2927.927928  0.52197 -156.09
2930.930931  0.52533 -156.39
2933.933934  0.52778 -156.81
2936.936937  0.52982 -157.13
2939.939940  0.53169 -157.85
2942.942943  0.53420 -158.42
2945.945946  0.53556 -158.92
2948.948949  0.53748 -159.35
2951.951952  0.53867 -160.05
2954.954955  0.53927 -160.33
2957.957958  0.54058 -161.23
2960.960961  0.53964 -161.79
2963.963964  0.54089 -162.55
2966.966967  0.53910 -163.07
2969.969970  0.53894 -163.63
2972.972973  0.53739 -164.59
2975.975976  0.53531 -164.66
2978.978979  0.53583 -165.24
2981.981982  0.53550 -165.76
2984.984985  0.53412 -165.93
2987.987988  0.53321 -166.94
2990.990991  0.53409 -167.25
2993.993994  0.53286 -168.11
2996.996997  0.53328 -168.64
3000.000000  0.53146 -169.94
3003.003003  0.52987 -170.50
3006.006006  0.52775 -171.47
3009.009009  0.52378 -172.20
3012.012012  0.52299 -173.05
3015.015015  0.52083 -174.32
3018.018018  0.51626 -174.93
3021.021021  0.51019 -175.93
3024.024024  0.50555 -176.68
3027.027027  0.50277 -177.37
3030.030030  0.49612 -178.37
3033.033033  0.49148 -179.01
3036.036036  0.48726 -179.56
3039.039039  0.48110  179.40
3042.042042  0.47340  178.43
3045.045045  0.46908  178.13
3048.048048  0.46073  176.89
3051.051051  0.45538  176.49
3054.054054  0.44935  175.27
3057.057057  0.44156  174.34
3060.060060  0.43472  173.82
3063.063063  0.42867  172.85
